  can0  0C0   [8]  00 00 00 00 01 00 00 00
  can0  037   [1]  B2
  can0  038   [1]  11
  can0  080   [8]  00 00 00 00 FF FF 00 86
  can0  037   [1]  B2
  can0  038   [1]  11
  can0  6D0   [8]  44 00 00 0B 74 00 AA 45
  can0  0C0   [8]  00 00 00 00 01 00 00 00
  can0  037   [1]  B2
  can0  038   [1]  11
  can0  001   [2]  A2 02
  can0  000   [2]  00 00
  can0  002   [2]  7C 01
  can0  003   [2]  01 00
  can0  037   [1]  B2
  can0  038   [1]  11
  can0  0C0   [8]  00 00 00 00 01 00 00 00
  can0  6D0   [8]  45 00 00 0B 74 00 B2 4E
  can0  037   [1]  B2
  can0  038   [1]  11
  can0  0C0   [8]  00 00 00 00 01 00 00 00
  can0  037   [1]  B2
  can0  038   [1]  11
  can0  6D0   [8]  46 00 00 0B 74 00 6F 0C
  can0  037   [1]  B2
  can0  038   [1]  11
  can0  6D0   [8]  47 00 00 0B 74 07 F9 9E
  can0  001   [2]  A2 02
  can0  000   [2]  00 00
  can0  002   [2]  7D 01
  can0  003   [2]  02 00
  can0  0C0   [8]  00 00 00 00 01 00 00 00
  can0  6B1   [8]  00 32 00 0F 11 0F 00 1A
  can0  038   [1]  11
  can0  037   [1]  B2
  can0  6D0   [8]  48 00 00 0B 74 07 FA A0
  can0  080   [4]  06 11 00 9B
  can0  1839F380   [8]  00 0F 11 10 24 0A 15 B4
  can0  1838F380   [8]  00 03 10 03 0F 11 0A 15
  can0       6D0   [8]  49 00 00 0B 74 00 00 A0
  can0       0C0   [8]  00 00 00 00 01 00 00 00
  can0       037   [1]  B2
  can0       038   [1]  11
  can0       6D0   [8]  4A 00 00 0B 74 00 00 A1
  can0       001   [2]  A2 02
  can0       000   [2]  00 00
  can0       002   [2]  7C 01
  can0       003   [2]  01 00
  can0       038   [1]  11
  can0       037   [1]  B2
  can0       0C0   [8]  00 00 00 00 01 00 00 00
  can0       037   [1]  B2
  can0       038   [1]  11
  can0       037   [1]  B2
  can0       038   [1]  11
  can0       6D0   [8]  4B 00 00 0B 74 00 00 A2
  can0       0C0   [8]  00 00 00 00 01 00 00 00
  can0       080   [8]  00 00 00 00 01 00 00 89
  can0       037   [1]  B2
  can0       038   [1]  11
  can0       001   [2]  A2 02
  can0       000   [2]  00 00
  can0       002   [2]  7D 01
  can0       003   [2]  01 00
  can0       037   [1]  B2
  can0       038   [1]  11
  can0       0C0   [8]  00 00 00 00 01 00 00 00
  can0       037   [1]  B2
  can0       038   [1]  11
  can0       6D0   [8]  4C 00 00 0B 74 00 00 A3
  can0       037   [1]  B2
  can0       038   [1]  11
  can0       6D0   [8]  4D 00 00 0B 74 00 00 A4
  can0       0C0   [8]  00 00 00 00 01 00 00 00
  can0       037   [1]  B2
  can0       038   [1]  11
  can0       6D0   [8]  4E 00 00 0B 74 00 01 A6
  can0       001   [2]  A1 02
  can0       000   [2]  00 00
  can0       002   [2]  7D 01
  can0       003   [2]  01 00
  can0       037   [1]  B2
  can0       038   [1]  11
  can0       0C0   [8]  00 00 00 00 01 00 00 00
  can0       6D0   [8]  4F 00 00 0B 74 50 80 76
  can0       037   [1]  B2
  can0       038   [1]  11
  can0       0C0   [8]  00 00 00 00 01 00 00 00
  can0       6B1   [8]  00 32 00 0F 11 0F 00 1A
  can0       038   [1]  11
  can0       037   [1]  B2
  can0       080   [4]  05 0F 00 98
  can0  1839F380   [8]  00 0F 11 10 24 0A 15 B4
  can0  1838F380   [8]  00 04 10 04 0F 11 0A 15
  can0  18EEFF80   [8]  F3 00 80 F3 00 40 1E 90
  can0       037   [1]  B2
  can0       038   [1]  11
  can0       6D0   [8]  50 00 00 0B 74 4F 31 27
  can0       001   [2]  A2 02
  can0       000   [2]  00 00
  can0       002   [2]  7C 01
  can0       003   [2]  02 00
  can0       0C0   [8]  00 00 00 00 01 00 00 00
  can0       037   [1]  B2
  can0       038   [1]  11
  can0       037   [1]  B2
  can0       038   [1]  11
  can0       6D0   [8]  51 00 00 0B 74 21 31 FA
  can0       0C0   [8]  00 00 00 00 01 00 00 00
  can0       037   [1]  B2
  can0       038   [1]  11
  can0       6D0   [8]  52 00 00 0B 74 00 00 A9
  can0       001   [2]  A3 02
  can0       000   [2]  00 00
  can0       002   [2]  7D 01
  can0       003   [2]  01 00
  can0       038   [1]  11
  can0       037   [1]  B2
  can0       080   [8]  00 00 00 00 FF FF 00 86
  can0       0C0   [8]  00 00 00 00 01 00 00 00
  can0       037   [1]  B2
  can0       038   [1]  11
  can0       6D0   [8]  53 00 00 0B 74 00 00 AA
  can0       037   [1]  B2
  can0       038   [1]  11
  can0       6D0   [8]  54 00 00 0B 74 00 00 AB
  can0       0C0   [8]  00 00 00 00 01 00 00 00
  can0       037   [1]  B2
  can0       038   [1]  11
  can0       001   [2]  A2 02
  can0       000   [2]  00 00
  can0       002   [2]  7C 01
  can0       003   [2]  01 00
  can0       037   [1]  B2
  can0       038   [1]  11
  can0       0C0   [8]  00 00 00 00 01 00 00 00
  can0       037   [1]  B2
  can0       038   [1]  11
  can0       6D0   [8]  55 00 00 0B 74 00 00 AC
  can0       037   [1]  B2
  can0       038   [1]  11
  can0       6D0   [8]  56 00 00 0B 74 00 00 AD
  can0       0C0   [8]  00 00 00 00 01 00 00 00
  can0       037   [1]  B2
  can0       038   [1]  11
  can0       6D0   [8]  57 00 00 0B 74 00 00 AE
  can0       001   [2]  A3 02
  can0       000   [2]  00 00
  can0       002   [2]  7C 01
  can0       003   [2]  01 00
  can0       080   [4]  06 11 00 9B
  can0  1839F380   [8]  00 0F 11 10 24 0A 15 B4
  can0  1838F380   [8]  00 05 10 05 0F 11 0A 15
  can0       6B1   [8]  00 32 00 0F 11 0F 00 1A
  can0       038   [1]  11
  can0       037   [1]  B2
  can0       0C0   [8]  00 00 00 00 01 00 00 00
  can0       6D0   [8]  58 00 00 0B 74 FF D8 86
  can0       037   [1]  B2
  can0       038   [1]  11
  can0       6D0   [8]  59 00 00 0B 74 00 00 B0
  can0       0C0   [8]  00 00 00 00 01 00 00 00
  can0       037   [1]  B2
  can0       038   [1]  11
  can0       037   [1]  B2
  can0       038   [1]  11
  can0       6D0   [8]  5A 00 00 0B 74 00 00 B1
  can0       001   [2]  A2 02
  can0       000   [2]  00 00
  can0       002   [2]  7C 01
  can0       003   [2]  01 00
  can0       0C0   [8]  00 00 00 00 01 00 00 00
  can0       037   [1]  B2
  can0       038   [1]  11
  can0       6D0   [8]  5B 00 00 0B 74 00 00 B2
  can0       080   [8]  00 00 00 00 00 00 00 88
  can0       037   [1]  B2
  can0       038   [1]  11
  can0       0C0   [8]  00 00 00 00 01 00 00 00
  can0       037   [1]  B2
  can0       038   [1]  11
  can0       001   [2]  A2 02
  can0       000   [2]  00 00
  can0       002   [2]  7C 01
  can0       003   [2]  02 00
  can0       038   [1]  11
  can0       037   [1]  B2
  can0       0C0   [8]  00 00 00 00 01 00 00 00
  can0       037   [1]  B2
  can0       038   [1]  11
  can0       6D0   [8]  5C 00 00 0B 74 00 00 B3
  can0       037   [1]  B2
  can0       038   [1]  11
  can0       0C0   [8]  00 00 00 00 01 00 00 00
  can0       037   [1]  B2
  can0       038   [1]  11
  can0       6D0   [8]  5D 00 00 0B 74 00 00 B4
  can0       001   [2]  A2 02
  can0       000   [2]  00 00
  can0       002   [2]  7D 01
  can0       003   [2]  02 00
  can0       037   [1]  B2
  can0       038   [1]  11
  can0       6D0   [8]  5E 00 00 0B 74 00 00 B5
  can0       0C0   [8]  00 00 00 00 01 00 00 00
  can0       037   [1]  B2
  can0       038   [1]  11
  can0       6D0   [8]  5F 00 00 0B 74 00 00 B6
  can0       080   [4]  05 0F 00 98
  can0  1839F380   [8]  00 0F 11 10 24 0A 15 B4
  can0  1838F380   [8]  00 06 11 06 0F 11 0A 15
  can0  18EEFF80   [8]  F3 00 80 F3 00 40 1E 90
  can0       6B1   [8]  00 32 00 0F 11 0F 00 1A
  can0       038   [1]  11
  can0       037   [1]  B2
  can0       6D0   [8]  60 00 00 0B 74 00 00 B7
  can0       0C0   [8]  00 00 00 00 01 00 00 00
  can0       037   [1]  B2
  can0       038   [1]  11
  can0       001   [2]  A2 02
  can0       000   [2]  00 00
  can0       002   [2]  7D 01
  can0       003   [2]  02 00
  can0       037   [1]  B2
  can0       038   [1]  11
  can0       0C0   [8]  00 00 00 00 01 00 00 00
  can0       037   [1]  B2
  can0       038   [1]  11
  can0       0C0   [8]  00 00 00 00 01 00 00 00
  can0       037   [1]  B2
  can0       038   [1]  11
  can0       6D0   [8]  61 00 00 0B 74 00 00 B8
  can0       080   [8]  00 00 00 00 00 00 00 88
  can0       037   [1]  B2
  can0       038   [1]  11
  can0       001   [2]  A2 02
  can0       000   [2]  00 00
  can0       002   [2]  7C 01
  can0       003   [2]  03 00
  can0       0C0   [8]  00 00 00 00 01 00 00 00
  can0       037   [1]  B2
  can0       038   [1]  11
  can0       037   [1]  B2
  can0       038   [1]  11
  can0       6D0   [8]  62 00 00 0B 74 00 00 B9
  can0       0C0   [8]  00 00 00 00 01 00 00 00
  can0       037   [1]  B2
  can0       038   [1]  11
  can0       6D0   [8]  63 00 00 0B 74 00 00 BA
  can0       001   [2]  A2 02
  can0       000   [2]  00 00
  can0       002   [2]  7B 01
  can0       003   [2]  01 00
  can0       038   [1]  11
  can0       037   [1]  B2
  can0       6D0   [8]  64 00 00 0B 74 00 00 BB
  can0       0C0   [8]  00 00 00 00 01 00 00 00
  can0       037   [1]  B2
  can0       038   [1]  11
  can0       6D0   [8]  65 00 00 0B 74 00 00 BC
  can0       037   [1]  B2
  can0       038   [1]  11
  can0       0C0   [8]  00 00 00 00 01 00 00 00
  can0       080   [4]  06 11 00 9B
  can0  1839F380   [8]  00 0F 11 10 24 0A 15 B4
  can0  1838F380   [8]  00 07 11 07 0F 11 0A 15
  can0       038   [1]  11
  can0       001   [2]  A1 02
  can0       000   [2]  00 00
  can0       002   [2]  7E 01
  can0       003   [2]  01 00
  can0       6B1   [8]  00 32 00 0F 11 0F 00 1A
  can0       038   [1]  11
  can0       037   [1]  B2
  can0       6D0   [8]  66 00 00 0B 74 00 00 BD
  can0       0C0   [8]  00 00 00 00 01 00 00 00
  can0       037   [1]  B2
  can0       038   [1]  11
  can0       037   [1]  B2
  can0       038   [1]  11
  can0       6D0   [8]  67 00 00 0B 74 FF FF BC
  can0       0C0   [8]  00 00 00 00 01 00 00 00
  can0       037   [1]  B2
  can0       038   [1]  11
  can0       6D0   [8]  68 00 00 0B 74 00 00 BF
  can0       001   [2]  A2 02
  can0       000   [2]  00 00
  can0       002   [2]  7C 01
  can0       003   [2]  00 00
  can0       080   [8]  00 00 00 00 00 00 00 88
  can0       037   [1]  B2
  can0       038   [1]  11
  can0       0C0   [8]  00 00 00 00 01 00 00 00
  can0       6D0   [8]  6E 00 00 0B 74 00 40 05
  can0       037   [1]  B2
  can0       038   [1]  11
  can0       0C0   [8]  00 00 00 00 01 00 00 00
  can0       037   [1]  B2
  can0       038   [1]  11
  can0       6D0   [8]  73 00 00 0B 74 07 F9 CA
  can0       037   [1]  B2
  can0       038   [1]  11
  can0       001   [2]  A2 02
  can0       000   [2]  00 00
  can0       002   [2]  7D 01
  can0       003   [2]  02 00
  can0       0C0   [8]  00 00 00 00 01 00 00 00
  can0       037   [1]  B2
  can0       038   [1]  11
  can0       037   [1]  B2
  can0       038   [1]  11
  can0       6D0   [8]  74 00 00 0B 74 07 FA CC
  can0       0C0   [8]  00 00 00 00 01 00 00 00
  can0       037   [1]  B2
  can0       038   [1]  11
  can0       001   [2]  A2 02
  can0       000   [2]  00 00
  can0       002   [2]  7D 01
  can0       003   [2]  01 00
  can0       038   [1]  11
  can0       037   [1]  B2
  can0       6D0   [8]  75 00 00 0B 74 00 00 CC
  can0       080   [4]  05 0F 00 98
  can0  1839F380   [8]  00 0F 11 10 24 0A 15 B4
  can0  1838F380   [8]  00 08 0F 08 0F 11 0A 15
  can0       0C0   [8]  00 00 00 00 01 00 00 00
  can0  18EEFF80   [8]  F3 00 80 F3 00 40 1E 90
  can0       037   [1]  B2
  can0       038   [1]  11
  can0       6D0   [8]  76 00 00 0B 74 00 00 CD
  can0       6B1   [8]  00 32 00 0F 11 0F 00 1A
  can0       038   [1]  11
  can0       037   [1]  B2
  can0       6D0   [8]  77 00 00 0B 74 00 00 CE
  can0       0C0   [8]  00 00 00 00 01 00 00 00
  can0       037   [1]  B2
  can0       038   [1]  11
  can0       6D0   [8]  78 00 00 0B 74 00 00 CF
  can0       001   [2]  A2 02
  can0       000   [2]  00 00
  can0       002   [2]  7C 01
  can0       003   [2]  02 00
  can0       037   [1]  B2
  can0       038   [1]  11
  can0       6D0   [8]  79 00 00 0B 74 00 00 D0
  can0       0C0   [8]  00 00 00 00 01 00 00 00
  can0       037   [1]  B2
  can0       038   [1]  11
  can0       080   [8]  00 00 00 00 00 00 00 88
  can0       037   [1]  B2
  can0       038   [1]  11
  can0       0C0   [8]  00 00 00 00 01 00 00 00
  can0       037   [1]  B2
  can0       038   [1]  11
  can0       6D0   [8]  7A 00 00 0B 74 00 00 D1
  can0       001   [2]  A2 02
  can0       000   [2]  00 00
  can0       002   [2]  7D 01
  can0       003   [2]  01 00
  can0       037   [1]  B2
  can0       038   [1]  11
  can0       0C0   [8]  00 00 00 00 01 00 00 00
  can0       037   [1]  B2
  can0       038   [1]  11
  can0       6D0   [8]  7B 00 00 0B 74 00 03 D5
  can0       0C0   [8]  00 00 00 00 01 00 00 00
  can0       037   [1]  B2
  can0       038   [1]  11
  can0       6D0   [8]  7C 00 00 0B 74 00 08 DB
  can0       037   [1]  B2
  can0       038   [1]  11
  can0       001   [2]  A2 02
  can0       000   [2]  00 00
  can0       002   [2]  7C 01
  can0       003   [2]  02 00
  can0       0C0   [8]  00 00 00 00 01 00 00 00
  can0       037   [1]  B2
  can0       038   [1]  11
  can0       6D0   [8]  7D 00 00 0B 74 00 00 D4
  can0       080   [4]  06 11 00 9B
  can0  1839F380   [8]  00 0F 11 10 24 0A 15 B4
  can0  1838F380   [8]  00 09 10 09 0F 11 0A 15
  can0       037   [1]  B2
  can0       038   [1]  11
  can0       6D0   [8]  7E 00 00 0B 74 00 00 D5
  can0       0C0   [8]  00 00 00 00 01 00 00 00
  can0       037   [1]  B2
  can0       038   [1]  11
  can0       001   [2]  A2 02
  can0       000   [2]  00 00
  can0       002   [2]  7D 01
  can0       003   [2]  01 00
  can0       038   [1]  11
  can0       037   [1]  B2
  can0       6B1   [8]  00 32 00 0F 11 0F 00 1A
  can0       0C0   [8]  00 00 00 00 01 00 00 00
  can0       037   [1]  B2
  can0       038   [1]  11
  can0       6D0   [8]  7F 00 00 0B 74 00 AA 80
  can0       037   [1]  B2
  can0       038   [1]  11
  can0       0C0   [8]  00 00 00 00 01 00 00 00
  can0       080   [8]  00 00 00 00 01 00 00 89
  can0       037   [1]  B2
  can0       038   [1]  11
  can0       6D0   [8]  80 00 00 0B 74 00 00 D7
  can0       001   [2]  A2 02
  can0       000   [2]  00 00
  can0       002   [2]  7E 01
  can0       003   [2]  01 00
  can0       037   [1]  B2
  can0       038   [1]  11
  can0       6D0   [8]  82 00 00 0B 74 00 00 D9
  can0       0C0   [8]  00 00 00 00 01 00 00 00
  can0       037   [1]  B2
  can0       038   [1]  11
  can0       037   [1]  B2
  can0       038   [1]  11
  can0       6D0   [8]  83 00 00 0B 74 00 00 DA
  can0       0C0   [8]  00 00 00 00 01 00 00 00
  can0       037   [1]  B2
  can0       038   [1]  11
  can0       6D0   [8]  84 00 00 0B 74 00 00 DB
  can0       001   [2]  A2 02
  can0       000   [2]  00 00
  can0       002   [2]  7D 01
  can0       003   [2]  01 00
  can0       037   [1]  B2
  can0       038   [1]  11
  can0       0C0   [8]  00 00 00 00 01 00 00 00
  can0       037   [1]  B2
  can0       038   [1]  11
  can0       0C0   [8]  00 00 00 00 01 00 00 00
  can0       037   [1]  B2
  can0       038   [1]  11
  can0       6D0   [8]  85 00 00 0B 74 00 00 DC
  can0       080   [4]  05 0F 00 98
  can0  1839F380   [8]  00 0F 11 10 24 0A 15 B4
  can0  1838F380   [8]  00 0A 11 0A 0F 11 0A 15
  can0  18EEFF80   [8]  F3 00 80 F3 00 40 1E 90
  can0       037   [1]  B2
  can0       038   [1]  11
  can0       6D0   [8]  00 00 00 0B 74 01 03 5B
  can0       001   [2]  A2 02
  can0       000   [2]  00 00
  can0       002   [2]  7B 01
  can0       003   [2]  01 00
  can0       0C0   [8]  00 00 00 00 01 00 00 00
  can0       037   [1]  B2
  can0       038   [1]  11
  can0       6D0   [8]  01 00 00 0B 74 08 00 60
  can0       6B1   [8]  00 32 00 0F 11 0F 00 1A
  can0       038   [1]  11
  can0       037   [1]  B2
  can0       6D0   [8]  02 00 00 0B 74 05 A6 04
  can0       0C0   [8]  00 00 00 00 01 00 00 00
  can0       037   [1]  B2
  can0       038   [1]  11
  can0       6D0   [8]  03 00 00 0B 74 4D 00 A7
  can0       001   [2]  A2 02
  can0       000   [2]  00 00
  can0       002   [2]  7E 01
  can0       003   [2]  01 00
  can0       038   [1]  11
  can0       037   [1]  B2
  can0       6D0   [8]  04 00 00 0B 74 40 43 DE
  can0       080   [8]  00 00 00 00 00 00 00 88
  can0       0C0   [8]  00 00 00 00 01 00 00 00
  can0       037   [1]  B2
  can0       038   [1]  11
  can0       037   [1]  B2
  can0       038   [1]  11
  can0       6D0   [8]  05 00 00 0B 74 00 00 5C
  can0       0C0   [8]  00 00 00 00 01 00 00 00
  can0       037   [1]  B2
  can0       038   [1]  11
  can0       6D0   [8]  06 00 00 0B 74 00 6C C9
  can0       001   [2]  A2 02
  can0       000   [2]  00 00
  can0       002   [2]  7C 01
  can0       003   [2]  02 00
  can0       037   [1]  B2
  can0       038   [1]  11
  can0       0C0   [8]  00 00 00 00 01 00 00 00
  can0       037   [1]  B2
  can0       038   [1]  11
  can0       037   [1]  B2
  can0       038   [1]  11
  can0       6D0   [8]  07 00 00 0B 74 00 48 A6
  can0       0C0   [8]  00 00 00 00 01 00 00 00
  can0       037   [1]  B2
  can0       038   [1]  11
  can0       001   [2]  A2 02
  can0       000   [2]  00 00
  can0       002   [2]  7C 01
  can0       003   [2]  01 00
  can0       080   [4]  06 11 00 9B
  can0  1839F380   [8]  00 0F 11 10 24 16 15 C0
  can0  1838F380   [8]  00 0B 11 0B 0F 11 16 15
  can0       037   [1]  B2
  can0       038   [1]  11
  can0       0C0   [8]  00 00 00 00 01 00 00 00
  can0       6D0   [8]  08 00 00 0B 74 00 6A C9
  can0       037   [1]  B2
  can0       038   [1]  11
  can0       6D0   [8]  09 00 00 0B 74 40 00 A0
  can0       0C0   [8]  00 00 00 00 01 00 00 00
  can0       037   [1]  B2
  can0       038   [1]  11
  can0       6D0   [8]  0A 00 00 0B 74 00 0F 70
  can0       6B1   [8]  00 32 00 0F 11 0F 00 1A
  can0       038   [1]  11
  can0       037   [1]  B2
  can0       6D0   [8]  0B 00 00 0B 74 00 32 94
  can0       001   [2]  A2 02
  can0       000   [2]  00 00
  can0       002   [2]  7D 01
  can0       003   [2]  01 00
  can0       0C0   [8]  00 00 00 00 01 00 00 00
  can0       037   [1]  B2
  can0       038   [1]  11
  can0       6D0   [8]  0C 00 00 0B 74 00 00 63
  can0       080   [8]  00 00 00 00 00 00 00 88
  can0       037   [1]  B2
  can0       038   [1]  11
  can0       0C0   [8]  00 00 00 00 01 00 00 00
  can0       037   [1]  B2
  can0       038   [1]  11
  can0       001   [2]  A2 02
  can0       000   [2]  00 00
  can0       002   [2]  7D 01
  can0       003   [2]  01 00
  can0       038   [1]  11
  can0       037   [1]  B2
  can0       6D0   [8]  0D 00 00 0B 74 0B 74 E3
  can0       0C0   [8]  00 00 00 00 01 00 00 00
  can0       037   [1]  B2
  can0       038   [1]  11
  can0       037   [1]  B2
  can0       038   [1]  11
  can0       6D0   [8]  0E 00 00 0B 74 0B 74 E4
  can0       0C0   [8]  00 00 00 00 01 00 00 00
  can0       037   [1]  B2
  can0       038   [1]  11
  can0       6D0   [8]  0F 00 00 0B 74 00 B2 18
  can0       001   [2]  A2 02
  can0       000   [2]  00 00
  can0       002   [2]  7B 01
  can0       003   [2]  01 00
  can0       037   [1]  B2
  can0       038   [1]  11
  can0       6D0   [8]  10 00 00 0B 74 00 97 FE
  can0       0C0   [8]  00 00 00 00 01 00 00 00
  can0       037   [1]  B2
  can0       038   [1]  11
  can0       6D0   [8]  11 00 00 0B 74 01 96 FF
  can0       080   [4]  05 0F 00 98
  can0  1839F380   [8]  00 0F 11 10 24 0A 15 B4
  can0  1838F380   [8]  00 0C 10 0C 0F 11 0A 15
  can0  18EEFF80   [8]  F3 00 80 F3 00 40 1E 90
  can0       037   [1]  B2
  can0       038   [1]  11
  can0       6D0   [8]  12 00 00 0B 74 00 2A 93
  can0       0C0   [8]  00 00 00 00 01 00 00 00
  can0       037   [1]  B2
  can0       038   [1]  11
  can0       001   [2]  A2 02
  can0       000   [2]  00 00
  can0       002   [2]  7E 01
  can0       003   [2]  01 00
  can0       037   [1]  B2
  can0       038   [1]  11
  can0       0C0   [8]  00 00 00 00 01 00 00 00
  can0       6B1   [8]  00 32 00 0F 11 0F 00 1A
  can0       038   [1]  11
  can0       037   [1]  B2
  can0       6D0   [8]  13 00 00 0B 74 00 64 CE
  can0       0C0   [8]  00 00 00 00 01 00 00 00
  can0       037   [1]  B2
  can0       038   [1]  11
  can0       080   [8]  00 00 00 00 FF FF 00 86
  can0       037   [1]  B2
  can0       038   [1]  11
  can0       001   [2]  A2 02
  can0       000   [2]  00 00
  can0       002   [2]  7F 01
  can0       003   [2]  01 00
  can0       0C0   [8]  00 00 00 00 01 00 00 00
  can0       037   [1]  B2
  can0       038   [1]  11
  can0       6D0   [8]  14 00 00 0B 74 72 8B 68
  can0       037   [1]  B2
  can0       038   [1]  11
  can0       0C0   [8]  00 00 00 00 01 00 00 00
  can0       037   [1]  B2
  can0       038   [1]  11
  can0       001   [2]  A2 02
  can0       000   [2]  00 00
  can0       002   [2]  7C 01
  can0       003   [2]  01 00
  can0       038   [1]  11
  can0       037   [1]  B2
  can0       6D0   [8]  15 00 00 0B 74 7F FF EA
  can0       0C0   [8]  00 00 00 00 01 00 00 00
  can0       037   [1]  B2
  can0       038   [1]  11
  can0       6D0   [8]  16 00 00 0B 74 0B D0 48
  can0       037   [1]  B2
  can0       038   [1]  11
  can0       0C0   [8]  00 00 00 00 01 00 00 00
  can0       080   [4]  06 11 00 9B
  can0  1839F380   [8]  00 0F 11 10 24 16 15 C0
  can0  1838F380   [8]  00 0D 11 0D 0F 11 16 15
  can0       037   [1]  B2
  can0       038   [1]  11
  can0       001   [2]  A2 02
  can0       000   [2]  00 00
  can0       002   [2]  7C 01
  can0       003   [2]  01 00
  can0       037   [1]  B2
  can0       038   [1]  11
  can0       6D0   [8]  17 00 00 0B 74 07 08 7D
  can0       0C0   [8]  00 00 00 00 01 00 00 00
  can0       037   [1]  B2
  can0       038   [1]  11
  can0       037   [1]  B2
  can0       038   [1]  11
  can0       6D0   [8]  18 00 00 0B 74 00 19 88
  can0       0C0   [8]  00 00 00 00 01 00 00 00
  can0       6B1   [8]  00 32 00 0F 11 0F 00 1A
  can0       038   [1]  11
  can0       037   [1]  B2
  can0       6D0   [8]  19 00 00 0B 74 04 04 78
  can0       001   [2]  A2 02
  can0       000   [2]  00 00
  can0       002   [2]  7D 01
  can0       003   [2]  01 00
  can0       080   [8]  00 00 00 00 00 00 00 88
  can0       037   [1]  B2
  can0       038   [1]  11
  can0       0C0   [8]  00 00 00 00 01 00 00 00
  can0       6D0   [8]  1A 00 00 0B 74 00 2D 9E
  can0       037   [1]  B2
  can0       038   [1]  11
  can0       0C0   [8]  00 00 00 00 01 00 00 00
  can0       037   [1]  B2
  can0       038   [1]  11
  can0       6D0   [8]  1B 00 00 0B 74 00 85 F7
  can0       037   [1]  B2
  can0       038   [1]  11
  can0       001   [2]  A2 02
  can0       000   [2]  00 00
  can0       002   [2]  7D 01
  can0       003   [2]  01 00
  can0       0C0   [8]  00 00 00 00 01 00 00 00
  can0       037   [1]  B2
  can0       038   [1]  11
  can0       037   [1]  B2
  can0       038   [1]  11
  can0       6D0   [8]  1C 00 00 0B 74 00 4B BE
  can0       0C0   [8]  00 00 00 00 01 00 00 00
  can0       037   [1]  B2
  can0       038   [1]  11
  can0       001   [2]  A2 02
  can0       000   [2]  00 00
  can0       002   [2]  7E 01
  can0       003   [2]  01 00
  can0       038   [1]  11
  can0       037   [1]  B2
  can0       6D0   [8]  1D 00 00 0B 74 00 14 88
  can0       080   [4]  05 0F 00 98
  can0  1839F380   [8]  00 0F 11 10 24 0A 15 B4
  can0  1838F380   [8]  00 0E 11 0E 0F 11 0A 15
  can0       0C0   [8]  00 00 00 00 01 00 00 00
  can0  18EEFF80   [8]  F3 00 80 F3 00 40 1E 90
  can0       037   [1]  B2
  can0       038   [1]  11
  can0       6D0   [8]  1E 00 00 0B 74 00 00 75
  can0       037   [1]  B2
  can0       038   [1]  11
  can0       6D0   [8]  1F 00 00 0B 74 00 14 8A
  can0       0C0   [8]  00 00 00 00 01 00 00 00
  can0       037   [1]  B2
  can0       038   [1]  11
  can0       6D0   [8]  20 00 00 0B 74 00 08 7F
  can0       001   [2]  A2 02
  can0       000   [2]  00 00
  can0       002   [2]  7C 01
  can0       003   [2]  01 00
  can0       037   [1]  B2
  can0       038   [1]  11
  can0       6D0   [8]  21 00 00 0B 74 00 00 78
  can0       0C0   [8]  00 00 00 00 01 00 00 00
  can0       6B1   [8]  00 32 00 0F 11 0F 00 1A
  can0       038   [1]  11
  can0       037   [1]  B2
  can0       080   [8]  00 00 00 00 00 00 00 88
  can0       037   [1]  B2
  can0       038   [1]  11
  can0       0C0   [8]  00 00 00 00 01 00 00 00
  can0       037   [1]  B2
  can0       038   [1]  11
  can0       6D0   [8]  22 00 00 0B 74 00 00 79
  can0       001   [2]  A2 02
  can0       000   [2]  00 00
  can0       002   [2]  7C 01
  can0       003   [2]  01 00
  can0       037   [1]  B2
  can0       038   [1]  11
  can0       0C0   [8]  00 00 00 00 01 00 00 00
  can0       037   [1]  B2
  can0       038   [1]  11
  can0       6D0   [8]  23 00 00 0B 74 0B 74 F9
  can0       0C0   [8]  00 00 00 00 01 00 00 00
  can0       037   [1]  B2
  can0       038   [1]  11
  can0       6D0   [8]  24 00 00 0B 74 00 AC 27
  can0       037   [1]  B2
  can0       038   [1]  11
  can0       001   [2]  A2 02
  can0       000   [2]  00 00
  can0       002   [2]  7C 01
  can0       003   [2]  02 00
  can0       0C0   [8]  00 00 00 00 01 00 00 00
  can0       037   [1]  B2
  can0       038   [1]  11
  can0       6D0   [8]  25 00 00 0B 74 00 0E 8A
  can0       080   [4]  06 11 00 9B
  can0  1839F380   [8]  00 0F 11 10 24 16 15 C0
  can0  1838F380   [8]  00 0F 10 0F 0F 11 16 15
  can0       037   [1]  B2
  can0       038   [1]  11
  can0       6D0   [8]  26 00 00 0B 74 B2 5F 8E
  can0       0C0   [8]  00 00 00 00 01 00 00 00
  can0       037   [1]  B2
  can0       038   [1]  11
  can0       001   [2]  A2 02
  can0       000   [2]  00 00
  can0       002   [2]  7D 01
  can0       003   [2]  00 00
  can0       038   [1]  11
  can0       037   [1]  B2
  can0       0C0   [8]  00 00 00 00 01 00 00 00
  can0       037   [1]  B2
  can0       038   [1]  11
  can0       6D0   [8]  27 00 00 0B 74 00 00 7E
  can0       037   [1]  B2
  can0       038   [1]  11
  can0       0C0   [8]  00 00 00 00 01 00 00 00
  can0       080   [8]  00 00 00 00 01 00 00 89
  can0       6B1   [8]  00 32 00 0F 11 0F 00 1A
  can0       038   [1]  11
  can0       037   [1]  B2
  can0       6D0   [8]  28 00 00 0B 74 00 11 90
  can0       001   [2]  A1 02
  can0       000   [2]  00 00
  can0       002   [2]  7D 01
  can0       003   [2]  01 00
  can0       037   [1]  B2
  can0       038   [1]  11
  can0       6D0   [8]  29 00 00 0B 74 00 0F 8F
  can0       0C0   [8]  00 00 00 00 01 00 00 00
  can0       037   [1]  B2
  can0       038   [1]  11
  can0       037   [1]  B2
  can0       038   [1]  11
  can0       6D0   [8]  2A 00 00 0B 74 00 10 91
  can0       0C0   [8]  00 00 00 00 01 00 00 00
  can0       037   [1]  B2
  can0       038   [1]  11
  can0       6D0   [8]  2B 00 00 0B 74 00 00 82
  can0       001   [2]  A1 02
  can0       000   [2]  00 00
  can0       002   [2]  7D 01
  can0       003   [2]  01 00
  can0       037   [1]  B2
  can0       038   [1]  11
  can0       0C0   [8]  00 00 00 00 01 00 00 00
  can0       037   [1]  B2
  can0       038   [1]  11
  can0       0C0   [8]  00 00 00 00 01 00 00 00
  can0       037   [1]  B2
  can0       038   [1]  11
  can0       6D0   [8]  2C 00 00 0B 74 00 00 83
  can0       080   [4]  05 0F 00 98
  can0  1839F380   [8]  00 0F 11 10 24 0A 15 B4
  can0  1838F380   [8]  00 10 11 10 0F 11 0A 15
  can0  18EEFF80   [8]  F3 00 80 F3 00 40 1E 90
  can0       037   [1]  B2
  can0       038   [1]  11
  can0       6D0   [8]  2D 00 00 0B 74 00 13 97
  can0       001   [2]  A2 02
  can0       000   [2]  00 00
  can0       002   [2]  7C 01
  can0       003   [2]  01 00
  can0       0C0   [8]  00 00 00 00 01 00 00 00
  can0       037   [1]  B2
  can0       038   [1]  11
  can0       6D0   [8]  2E 00 00 0B 74 00 6F F4
  can0       037   [1]  B2
  can0       038   [1]  11
  can0       6D0   [8]  2F 00 00 0B 74 00 7A 00
  can0       0C0   [8]  00 00 00 00 01 00 00 00
  can0       037   [1]  B2
  can0       038   [1]  11
  can0       6D0   [8]  30 00 00 0B 74 00 01 88
  can0       001   [2]  A2 02
  can0       000   [2]  00 00
  can0       002   [2]  7C 01
  can0       003   [2]  01 00
  can0       038   [1]  11
  can0       037   [1]  B2
  can0       080   [8]  00 00 00 00 00 00 00 88
  can0       0C0   [8]  00 00 00 00 01 00 00 00
  can0       6B1   [8]  00 32 00 0F 11 0F 00 1A
  can0       038   [1]  11
  can0       037   [1]  B2
  can0       037   [1]  B2
  can0       038   [1]  11
  can0       6D0   [8]  31 00 00 0B 74 00 00 88
  can0       0C0   [8]  00 00 00 00 01 00 00 00
  can0       037   [1]  B2
  can0       038   [1]  11
  can0       001   [2]  A2 02
  can0       000   [2]  00 00
  can0       002   [2]  7D 01
  can0       003   [2]  01 00
  can0       037   [1]  B2
  can0       038   [1]  11
  can0       0C0   [8]  00 00 00 00 01 00 00 00
  can0       037   [1]  B2
  can0       038   [1]  11
  can0       037   [1]  B2
  can0       038   [1]  11
  can0       6D0   [8]  32 00 00 0B 74 9C CB F0
  can0       0C0   [8]  00 00 00 00 01 00 00 00
  can0       037   [1]  B2
  can0       038   [1]  11
  can0       001   [2]  A2 02
  can0       000   [2]  00 00
  can0       002   [2]  7C 01
  can0       003   [2]  01 00
  can0       080   [4]  06 11 00 9B
  can0  1839F380   [8]  00 0F 11 10 24 0A 15 B4
  can0  1838F380   [8]  00 11 11 11 0F 11 0A 15
  can0       037   [1]  B2
  can0       038   [1]  11
  can0       0C0   [8]  00 00 00 00 01 00 00 00
  can0       6D0   [8]  33 00 00 0B 74 9F 80 A9
  can0       037   [1]  B2
  can0       038   [1]  11
  can0       6D0   [8]  34 00 00 0B 74 9F 17 41
  can0       0C0   [8]  00 00 00 00 01 00 00 00
  can0       037   [1]  B2
  can0       038   [1]  11
  can0       6D0   [8]  35 00 00 0B 74 9C CA F2
  can0       037   [1]  B2
  can0       038   [1]  11
  can0       6D0   [8]  36 00 00 0B 74 9F 80 AC
  can0       001   [2]  A2 02
  can0       000   [2]  00 00
  can0       002   [2]  7D 01
  can0       003   [2]  02 00
  can0       0C0   [8]  00 00 00 00 01 00 00 00
  can0       037   [1]  B2
  can0       038   [1]  11
  can0       080   [8]  00 00 FF FF 00 00 00 86
  can0       037   [1]  B2
  can0       038   [1]  11
  can0       0C0   [8]  00 00 00 00 01 00 00 00
  can0       6B1   [8]  00 32 00 0F 11 0F 00 1A
  can0       038   [1]  11
  can0       037   [1]  B2
  can0       001   [2]  A2 02
  can0       000   [2]  00 00
  can0       002   [2]  7B 01
  can0       003   [2]  02 00
  can0       038   [1]  11
  can0       037   [1]  B2
  can0       6D0   [8]  37 00 00 0B 74 9F 16 43
  can0       0C0   [8]  00 00 00 00 01 00 00 00
  can0       037   [1]  B2
  can0       038   [1]  11
  can0       037   [1]  B2
  can0       038   [1]  11
  can0       6D0   [8]  38 00 00 0B 74 02 34 C5
  can0       0C0   [8]  00 00 00 00 01 00 00 00
  can0       037   [1]  B2
  can0       038   [1]  11
  can0       6D0   [8]  39 00 00 0B 74 02 34 C6
  can0       001   [2]  A2 02
  can0       000   [2]  00 00
  can0       002   [2]  7C 01
  can0       003   [2]  01 00
  can0       037   [1]  B2
  can0       038   [1]  11
  can0       6D0   [8]  3A 00 00 0B 74 02 34 C7
  can0       0C0   [8]  00 00 00 00 01 00 00 00
  can0       037   [1]  B2
  can0       038   [1]  11
  can0       6D0   [8]  3B 00 00 0B 74 A4 10 46
  can0       080   [4]  05 0F 00 98
  can0  1839F380   [8]  00 0F 11 10 24 0A 15 B4
  can0  1838F380   [8]  00 14 11 14 0F 11 0A 15
  can0  18EEFF80   [8]  F3 00 80 F3 00 40 1E 90
  can0       037   [1]  B2
  can0       038   [1]  11
  can0       6D0   [8]  3C 00 00 0B 74 61 A8 9C
  can0       0C0   [8]  00 00 00 00 01 00 00 00
  can0       037   [1]  B2
  can0       038   [1]  11
  can0       001   [2]  A2 02
  can0       000   [2]  00 00
  can0       002   [2]  7D 01
  can0       003   [2]  00 00
  can0       037   [1]  B2
  can0       038   [1]  11
  can0       0C0   [8]  00 00 00 00 01 00 00 00
  can0       037   [1]  B2
  can0       038   [1]  11
  can0       6D0   [8]  3D 00 00 0B 74 00 23 B7
  can0       0C0   [8]  00 00 00 00 01 00 00 00
  can0       037   [1]  B2
  can0       038   [1]  11
  can0       080   [8]  00 00 00 00 FF FF 00 86
  can0       037   [1]  B2
  can0       038   [1]  11
  can0       6D0   [8]  3E 00 00 0B 74 00 17 AC
  can0       001   [2]  A2 02
  can0       000   [2]  00 00
  can0       002   [2]  7B 01
  can0       003   [2]  01 00
  can0       0C0   [8]  00 00 00 00 01 00 00 00
  can0       6B1   [8]  00 32 00 0F 11 0F 00 1A
  can0       038   [1]  11
  can0       037   [1]  B2
  can0       6D0   [8]  3F 00 00 0B 74 00 23 B9
  can0       037   [1]  B2
  can0       038   [1]  11
  can0       0C0   [8]  00 00 00 00 01 00 00 00
  can0       037   [1]  B2
  can0       038   [1]  11
  can0       6D0   [8]  40 00 00 0B 74 00 17 AE
  can0       001   [2]  A2 02
  can0       000   [2]  00 00
  can0       002   [2]  7D 01
  can0       003   [2]  02 00
  can0       038   [1]  11
  can0       037   [1]  B2
  can0       6D0   [8]  41 00 00 0B 74 00 01 99
  can0       0C0   [8]  00 00 00 00 01 00 00 00
  can0       037   [1]  B2
  can0       038   [1]  11
  can0       037   [1]  B2
  can0       038   [1]  11
  can0       0C0   [8]  00 00 00 00 01 00 00 00
  can0       080   [4]  06 11 00 9B
  can0  1839F380   [8]  00 0F 11 10 24 0A 15 B4
  can0  1838F380   [8]  00 15 0F 15 0F 11 0A 15
  can0       037   [1]  B2
  can0       038   [1]  11
  can0       6D0   [8]  42 00 00 0B 74 00 01 9A
  can0       001   [2]  A2 02
  can0       000   [2]  00 00
  can0       002   [2]  7C 01
  can0       003   [2]  01 00
  can0       037   [1]  B2
  can0       038   [1]  11
  can0       0C0   [8]  00 00 00 00 01 00 00 00
  can0       037   [1]  B2
  can0       038   [1]  11
  can0       6D0   [8]  43 00 00 0B 74 00 97 31
  can0       037   [1]  B2
  can0       038   [1]  11
  can0       6D0   [8]  44 00 00 0B 74 00 AA 45
  can0       0C0   [8]  00 00 00 00 01 00 00 00
  can0       037   [1]  B2
  can0       038   [1]  11
  can0       6D0   [8]  45 00 00 0B 74 00 B2 4E
  can0       001   [2]  A2 02
  can0       000   [2]  00 00
  can0       002   [2]  7D 01
  can0       003   [2]  01 00
  can0       080   [8]  00 00 00 00 00 00 00 88
  can0       037   [1]  B2
  can0       038   [1]  11
  can0       0C0   [8]  00 00 00 00 01 00 00 00
  can0       6D0   [8]  46 00 00 0B 74 00 70 0D
  can0       037   [1]  B2
  can0       038   [1]  11
  can0       6D0   [8]  47 00 00 0B 74 07 F8 9D
  can0       0C0   [8]  00 00 00 00 01 00 00 00
  can0       6B1   [8]  00 32 00 0F 11 0F 00 1A
  can0       038   [1]  11
  can0       037   [1]  B2
  can0       037   [1]  B2
  can0       038   [1]  11
  can0       001   [2]  A3 02
  can0       000   [2]  00 00
  can0       002   [2]  7C 01
  can0       003   [2]  01 00
  can0       0C0   [8]  00 00 00 00 01 00 00 00
  can0       037   [1]  B2
  can0       038   [1]  11
  can0       6D0   [8]  48 00 00 0B 74 07 FA A0
  can0       037   [1]  B2
  can0       038   [1]  11
  can0       0C0   [8]  00 00 00 00 01 00 00 00
  can0       037   [1]  B2
  can0       038   [1]  11
  can0       6D0   [8]  49 00 00 0B 74 00 00 A0
  can0       001   [2]  A1 02
  can0       000   [2]  00 00
  can0       002   [2]  7D 01
  can0       003   [2]  01 00
  can0       038   [1]  11
  can0       037   [1]  B2
  can0       6D0   [8]  4A 00 00 0B 74 00 00 A1
  can0       080   [4]  05 0F 00 98
  can0  1839F380   [8]  00 0F 11 10 24 0A 15 B4
  can0  1838F380   [8]  00 16 11 16 0F 11 0A 15
  can0       0C0   [8]  00 00 00 00 01 00 00 00
  can0  18EEFF80   [8]  F3 00 80 F3 00 40 1E 90
  can0       037   [1]  B2
  can0       038   [1]  11
  can0       037   [1]  B2
  can0       038   [1]  11
  can0       6D0   [8]  4B 00 00 0B 74 00 00 A2
  can0       0C0   [8]  00 00 00 00 01 00 00 00
  can0       037   [1]  B2
  can0       038   [1]  11
  can0       6D0   [8]  4C 00 00 0B 74 00 00 A3
  can0       001   [2]  A2 02
  can0       000   [2]  00 00
  can0       002   [2]  7C 01
  can0       003   [2]  01 00
  can0       037   [1]  B2
  can0       038   [1]  11
  can0       0C0   [8]  00 00 00 00 01 00 00 00
  can0       037   [1]  B2
  can0       038   [1]  11
  can0       080   [8]  00 00 00 00 FF FF 00 86
  can0       037   [1]  B2
  can0       038   [1]  11
  can0       6D0   [8]  4D 00 00 0B 74 00 00 A4
  can0       0C0   [8]  00 00 00 00 01 00 00 00
  can0       037   [1]  B2
  can0       038   [1]  11
  can0       6D0   [8]  4E 00 00 0B 74 00 01 A6
  can0       001   [2]  A2 02
  can0       000   [2]  00 00
  can0       002   [2]  7C 01
  can0       003   [2]  01 00
  can0       6B1   [8]  00 32 00 0F 11 0F 00 1A
  can0       038   [1]  11
  can0       037   [1]  B2
  can0       0C0   [8]  00 00 00 00 01 00 00 00
  can0       037   [1]  B2
  can0       038   [1]  11
  can0       6D0   [8]  4F 00 00 0B 74 50 80 76
  can0       0C0   [8]  00 00 00 00 01 00 00 00
  can0       037   [1]  B2
  can0       038   [1]  11
  can0       037   [1]  B2
  can0       038   [1]  11
  can0       6D0   [8]  50 00 00 0B 74 4F 31 27
  can0       001   [2]  A2 02
  can0       000   [2]  00 00
  can0       002   [2]  7D 01
  can0       003   [2]  03 00
  can0       0C0   [8]  00 00 00 00 01 00 00 00
  can0       037   [1]  B2
  can0       038   [1]  11
  can0       6D0   [8]  51 00 00 0B 74 21 31 FA
  can0       080   [4]  06 11 00 9B
  can0  1839F380   [8]  00 0F 11 10 24 0A 15 B4
  can0  1838F380   [8]  00 17 10 17 0F 11 0A 15
  can0       037   [1]  B2
  can0       038   [1]  11
  can0       0C0   [8]  00 00 00 00 01 00 00 00
  can0       037   [1]  B2
  can0       038   [1]  11
  can0       001   [2]  A2 02
  can0       000   [2]  00 00
  can0       002   [2]  7C 01
  can0       003   [2]  01 00
  can0       038   [1]  11
  can0       037   [1]  B2
  can0       6D0   [8]  52 00 00 0B 74 00 00 A9
  can0       0C0   [8]  00 00 00 00 01 00 00 00
  can0       037   [1]  B2
  can0       038   [1]  11
  can0       6D0   [8]  53 00 00 0B 74 00 00 AA
  can0       037   [1]  B2
  can0       038   [1]  11
  can0       6D0   [8]  54 00 00 0B 74 00 00 AB
  can0       0C0   [8]  00 00 00 00 01 00 00 00
  can0       080   [8]  00 00 00 00 01 00 00 89
  can0       037   [1]  B2
  can0       038   [1]  11
  can0       6D0   [8]  55 00 00 0B 74 00 00 AC
  can0       001   [2]  A2 02
  can0       000   [2]  00 00
  can0       002   [2]  7D 01
  can0       003   [2]  01 00
  can0       037   [1]  B2
  can0       038   [1]  11
  can0       0C0   [8]  00 00 00 00 01 00 00 00
  can0       037   [1]  B2
  can0       038   [1]  11
  can0       6D0   [8]  56 00 00 0B 74 00 00 AD
  can0       6B1   [8]  00 32 00 0F 11 0F 00 1A
  can0       038   [1]  11
  can0       037   [1]  B2
  can0       6D0   [8]  57 00 00 0B 74 00 00 AE
  can0       0C0   [8]  00 00 00 00 01 00 00 00
  can0       037   [1]  B2
  can0       038   [1]  11
  can0       6D0   [8]  58 00 00 0B 74 FF D8 86
  can0       001   [2]  A2 02
  can0       000   [2]  00 00
  can0       002   [2]  7C 01
  can0       003   [2]  01 00
  can0       037   [1]  B2
  can0       038   [1]  11
  can0       0C0   [8]  00 00 00 00 01 00 00 00
  can0       037   [1]  B2
  can0       038   [1]  11
  can0       0C0   [8]  00 00 00 00 01 00 00 00
  can0       037   [1]  B2
  can0       038   [1]  11
  can0       080   [4]  05 0F 00 98
  can0  1839F380   [8]  00 0F 11 10 24 0A 15 B4
  can0  1838F380   [8]  00 18 11 18 0F 11 0A 15
  can0  18EEFF80   [8]  F3 00 80 F3 00 40 1E 90
  can0       037   [1]  B2
  can0       038   [1]  11
  can0       6D0   [8]  59 00 00 0B 74 00 00 B0
  can0       001   [2]  A2 02
  can0       000   [2]  00 00
  can0       002   [2]  7C 01
  can0       003   [2]  01 00
  can0       0C0   [8]  00 00 00 00 01 00 00 00
  can0       037   [1]  B2
  can0       038   [1]  11
  can0       037   [1]  B2
  can0       038   [1]  11
  can0       6D0   [8]  5A 00 00 0B 74 00 00 B1
  can0       0C0   [8]  00 00 00 00 01 00 00 00
  can0       037   [1]  B2
  can0       038   [1]  11
  can0       6D0   [8]  5B 00 00 0B 74 00 00 B2
  can0       001   [2]  A2 02
  can0       000   [2]  00 00
  can0       002   [2]  7B 01
  can0       003   [2]  01 00
  can0       038   [1]  11
  can0       037   [1]  B2
  can0       6D0   [8]  5C 00 00 0B 74 00 00 B3
  can0       080   [8]  00 00 00 00 FF FF 00 86
  can0       0C0   [8]  00 00 00 00 01 00 00 00
  can0       037   [1]  B2
  can0       038   [1]  11
  can0       037   [1]  B2
  can0       038   [1]  11
  can0       6D0   [8]  5D 00 00 0B 74 00 00 B4
  can0       0C0   [8]  00 00 00 00 01 00 00 00
  can0       037   [1]  B2
  can0       038   [1]  11
  can0       001   [2]  A2 02
  can0       000   [2]  00 00
  can0       002   [2]  7B 01
  can0       003   [2]  01 00
  can0       6B1   [8]  00 32 00 0F 11 0F 00 1A
  can0       038   [1]  11
  can0       037   [1]  B2
  can0       0C0   [8]  00 00 00 00 01 00 00 00
  can0       037   [1]  B2
  can0       038   [1]  11
  can0       037   [1]  B2
  can0       038   [1]  11
  can0       6D0   [8]  5E 00 00 0B 74 00 00 B5
  can0       0C0   [8]  00 00 00 00 01 00 00 00
  can0       037   [1]  B2
  can0       038   [1]  11
  can0       6D0   [8]  5F 00 00 0B 74 00 00 B6
  can0       001   [2]  A2 02
  can0       000   [2]  00 00
  can0       002   [2]  7D 01
  can0       003   [2]  02 00
  can0       080   [4]  06 11 00 9B
  can0  1839F380   [8]  00 0F 11 10 24 0A 15 B4
  can0  1838F380   [8]  00 19 11 19 0F 11 0A 15
  can0       037   [1]  B2
  can0       038   [1]  11
  can0       0C0   [8]  00 00 00 00 01 00 00 00
  can0       6D0   [8]  60 00 00 0B 74 00 00 B7
  can0       037   [1]  B2
  can0       038   [1]  11
  can0       6D0   [8]  61 00 00 0B 74 00 00 B8
  can0       0C0   [8]  00 00 00 00 01 00 00 00
  can0       037   [1]  B2
  can0       038   [1]  11
  can0       6D0   [8]  62 00 00 0B 74 00 00 B9
  can0       037   [1]  B2
  can0       038   [1]  11
  can0       6D0   [8]  63 00 00 0B 74 00 00 BA
  can0       001   [2]  A2 02
  can0       000   [2]  00 00
  can0       002   [2]  7C 01
  can0       003   [2]  01 00
  can0       0C0   [8]  00 00 00 00 01 00 00 00
  can0       037   [1]  B2
  can0       038   [1]  11
  can0       6D0   [8]  64 00 00 0B 74 00 00 BB
  can0       080   [8]  00 00 00 00 00 00 00 88
  can0       037   [1]  B2
  can0       038   [1]  11
  can0       6D0   [8]  65 00 00 0B 74 00 00 BC
  can0       0C0   [8]  00 00 00 00 01 00 00 00
  can0       037   [1]  B2
  can0       038   [1]  11
  can0       001   [2]  A2 02
  can0       000   [2]  00 00
  can0       002   [2]  7D 01
  can0       003   [2]  01 00
  can0       038   [1]  11
  can0       037   [1]  B2
  can0       0C0   [8]  00 00 00 00 01 00 00 00
  can0       037   [1]  B2
  can0       038   [1]  11
  can0       6D0   [8]  66 00 00 0B 74 00 00 BD
  can0       6B1   [8]  00 32 00 0F 11 0F 00 1A
  can0       038   [1]  11
  can0       037   [1]  B2
  can0       0C0   [8]  00 00 00 00 01 00 00 00
  can0       037   [1]  B2
  can0       038   [1]  11
  can0       6D0   [8]  67 00 00 0B 74 FF FF BC
  can0       001   [2]  A2 02
  can0       000   [2]  00 00
  can0       002   [2]  7C 01
  can0       003   [2]  00 00
  can0       037   [1]  B2
  can0       038   [1]  11
  can0       6D0   [8]  68 00 00 0B 74 00 00 BF
  can0       0C0   [8]  00 00 00 00 01 00 00 00
  can0       037   [1]  B2
  can0       038   [1]  11
  can0       080   [4]  05 0F 00 98
  can0  1839F380   [8]  00 0F 11 10 24 0A 15 B4
  can0  1838F380   [8]  00 1A 10 1A 0F 11 0A 15
  can0  18EEFF80   [8]  F3 00 80 F3 00 40 1E 90
  can0       037   [1]  B2
  can0       038   [1]  11
  can0       6D0   [8]  6E 00 00 0B 74 00 40 05
  can0       0C0   [8]  00 00 00 00 01 00 00 00
  can0       037   [1]  B2
  can0       038   [1]  11
  can0       6D0   [8]  73 00 00 0B 74 07 F9 CA
  can0       001   [2]  A2 02
  can0       000   [2]  00 00
  can0       002   [2]  7D 01
  can0       003   [2]  02 00
  can0       037   [1]  B2
  can0       038   [1]  11
  can0       0C0   [8]  00 00 00 00 01 00 00 00
  can0       037   [1]  B2
  can0       038   [1]  11
  can0       0C0   [8]  00 00 00 00 01 00 00 00
  can0       037   [1]  B2
  can0       038   [1]  11
  can0       6D0   [8]  74 00 00 0B 74 07 FA CC
  can0       080   [8]  00 00 00 00 00 00 00 88
  can0       037   [1]  B2
  can0       038   [1]  11
  can0       001   [2]  A1 02
  can0       000   [2]  00 00
  can0       002   [2]  7D 01
  can0       003   [2]  00 00
  can0       0C0   [8]  00 00 00 00 01 00 00 00
  can0       037   [1]  B2
  can0       038   [1]  11
  can0       037   [1]  B2
  can0       038   [1]  11
  can0       6D0   [8]  75 00 00 0B 74 00 00 CC
  can0       0C0   [8]  00 00 00 00 01 00 00 00
  can0       037   [1]  B2
  can0       038   [1]  11
  can0       001   [2]  A2 02
  can0       000   [2]  00 00
  can0       002   [2]  7C 01
  can0       003   [2]  01 00
  can0       038   [1]  11
  can0       037   [1]  B2
  can0       6B1   [8]  00 32 00 0F 11 0F 00 1A
  can0       6D0   [8]  76 00 00 0B 74 00 00 CD
  can0       0C0   [8]  00 00 00 00 01 00 00 00
  can0       037   [1]  B2
  can0       038   [1]  11
  can0       6D0   [8]  77 00 00 0B 74 00 00 CE
  can0       037   [1]  B2
  can0       038   [1]  11
  can0       0C0   [8]  00 00 00 00 01 00 00 00
  can0       080   [4]  06 11 00 9B
  can0  1839F380   [8]  00 0F 11 10 24 16 15 C0
  can0  1838F380   [8]  00 1B 10 1B 0F 11 16 15
  can0       037   [1]  B2
  can0       038   [1]  11
  can0       001   [2]  A2 02
  can0       000   [2]  00 00
  can0       002   [2]  7C 01
  can0       037   [1]  B2
  can0       038   [1]  11
  can0       6D0   [8]  78 00 00 0B 74 00 00 CF
  can0       0C0   [8]  00 00 00 00 01 00 00 00
  can0       037   [1]  B2
  can0       038   [1]  11
  can0       6D0   [8]  79 00 00 0B 74 00 00 D0
  can0       037   [1]  B2
  can0       038   [1]  11
  can0       6D0   [8]  7A 00 00 0B 74 00 00 D1
  can0       0C0   [8]  00 00 00 00 01 00 00 00
  can0       037   [1]  B2
  can0       038   [1]  11
  can0       6D0   [8]  7B 00 00 0B 74 00 03 D5
  can0       001   [2]  A2 02
  can0       000   [2]  00 00
  can0       002   [2]  7C 01
  can0       003   [2]  01 00
  can0       080   [8]  00 00 00 00 00 00 00 88
  can0       037   [1]  B2
  can0       038   [1]  11
  can0       0C0   [8]  00 00 00 00 01 00 00 00
  can0       6D0   [8]  7C 00 00 0B 74 00 08 DB
  can0       037   [1]  B2
  can0       038   [1]  11
  can0       6D0   [8]  7D 00 00 0B 74 00 00 D4
  can0       0C0   [8]  00 00 00 00 01 00 00 00
  can0       037   [1]  B2
  can0       038   [1]  11
  can0       037   [1]  B2
  can0       038   [1]  11
  can0       6D0   [8]  7E 00 00 0B 74 00 00 D5
  can0       001   [2]  A2 02
  can0       000   [2]  00 00
  can0       002   [2]  7D 01
  can0       003   [2]  01 00
  can0       0C0   [8]  00 00 00 00 01 00 00 00
  can0       037   [1]  B2
  can0       038   [1]  11
  can0       6B1   [8]  00 32 00 0F 11 0F 00 1A
  can0       038   [1]  11
  can0       037   [1]  B2
  can0       0C0   [8]  00 00 00 00 01 00 00 00
  can0       037   [1]  B2
  can0       038   [1]  11
  can0       001   [2]  A2 02
  can0       000   [2]  00 00
  can0       002   [2]  7C 01
  can0       003   [2]  01 00
  can0       038   [1]  11
  can0       037   [1]  B2
  can0       6D0   [8]  7F 00 00 0B 74 00 AA 80
  can0       080   [4]  05 0F 00 98
  can0  1839F380   [8]  00 0F 11 10 24 0A 15 B4
  can0  1838F380   [8]  00 1C 0F 1C 0F 11 0A 15
  can0       0C0   [8]  00 00 00 00 01 00 00 00
  can0  18EEFF80   [8]  F3 00 80 F3 00 40 1E 90
  can0       037   [1]  B2
  can0       038   [1]  11
  can0       037   [1]  B2
  can0       038   [1]  11
  can0       6D0   [8]  80 00 00 0B 74 00 00 D7
  can0       0C0   [8]  00 00 00 00 01 00 00 00
  can0       037   [1]  B2
  can0       038   [1]  11
  can0       6D0   [8]  82 00 00 0B 74 00 00 D9
  can0       001   [2]  A1 02
  can0       000   [2]  00 00
  can0       002   [2]  7D 01
  can0       003   [2]  01 00
  can0       037   [1]  B2
  can0       038   [1]  11
  can0       6D0   [8]  83 00 00 0B 74 00 00 DA
  can0       0C0   [8]  00 00 00 00 01 00 00 00
  can0       037   [1]  B2
  can0       038   [1]  11
  can0       6D0   [8]  84 00 00 0B 74 00 00 DB
  can0       080   [8]  00 00 00 00 00 00 00 88
  can0       037   [1]  B2
  can0       038   [1]  11
  can0       0C0   [8]  00 00 00 00 01 00 00 00
  can0       037   [1]  B2
  can0       038   [1]  11
  can0       001   [2]  A2 02
  can0       000   [2]  00 00
  can0       002   [2]  7D 01
  can0       003   [2]  00 00
  can0       037   [1]  B2
  can0       038   [1]  11
  can0       0C0   [8]  00 00 00 00 01 00 00 00
  can0       037   [1]  B2
  can0       038   [1]  11
  can0       6D0   [8]  85 00 00 0B 74 00 00 DC
  can0       0C0   [8]  00 00 00 00 01 00 00 00
  can0       037   [1]  B2
  can0       038   [1]  11
  can0       6B1   [8]  00 32 00 0F 11 0F 00 1A
  can0       038   [1]  11
  can0       037   [1]  B2
  can0       6D0   [8]  00 00 00 0B 74 01 03 5B
  can0       001   [2]  A2 02
  can0       000   [2]  00 00
  can0       002   [2]  7C 01
  can0       003   [2]  01 00
  can0       0C0   [8]  00 00 00 00 01 00 00 00
  can0       037   [1]  B2
  can0       038   [1]  11
  can0       6D0   [8]  01 00 00 0B 74 08 00 60
  can0       080   [4]  06 11 00 9B
  can0  1839F380   [8]  00 0F 11 10 24 0A 15 B4
  can0  1838F380   [8]  00 1D 10 1D 0F 11 0A 15
  can0       037   [1]  B2
  can0       038   [1]  11
  can0       6D0   [8]  02 00 00 0B 74 05 A6 04
  can0       0C0   [8]  00 00 00 00 01 00 00 00
  can0       037   [1]  B2
  can0       038   [1]  11
  can0       6D0   [8]  03 00 00 0B 74 4D 00 A7
  can0       001   [2]  A2 02
  can0       000   [2]  00 00
  can0       002   [2]  7D 01
  can0       003   [2]  01 00
  can0       038   [1]  11
  can0       037   [1]  B2
  can0       6D0   [8]  04 00 00 0B 74 40 43 DE
  can0       0C0   [8]  00 00 00 00 01 00 00 00
  can0       037   [1]  B2
  can0       038   [1]  11
  can0       037   [1]  B2
  can0       038   [1]  11
  can0       0C0   [8]  00 00 00 00 01 00 00 00
  can0       080   [8]  00 00 00 00 01 00 00 89
  can0       037   [1]  B2
  can0       038   [1]  11
  can0       6D0   [8]  05 00 00 0B 74 00 00 5C
  can0       001   [2]  A2 02
  can0       000   [2]  00 00
  can0       002   [2]  7C 01
  can0       003   [2]  00 00
  can0       037   [1]  B2
  can0       038   [1]  11
  can0       0C0   [8]  00 00 00 00 01 00 00 00
  can0       037   [1]  B2
  can0       038   [1]  11
  can0       037   [1]  B2
  can0       038   [1]  11
  can0       6D0   [8]  06 00 00 0B 74 00 6C C9
  can0       0C0   [8]  00 00 00 00 01 00 00 00
  can0       037   [1]  B2
  can0       038   [1]  11
  can0       6D0   [8]  07 00 00 0B 74 00 48 A6
  can0       001   [2]  A2 02
  can0       000   [2]  00 00
  can0       002   [2]  7D 01
  can0       003   [2]  01 00
  can0       037   [1]  B2
  can0       038   [1]  11
  can0       0C0   [8]  00 00 00 00 01 00 00 00
  can0       6D0   [8]  08 00 00 0B 74 00 7B DA
  can0       6B1   [8]  00 32 00 0F 11 0F 00 1A
  can0       038   [1]  11
  can0       037   [1]  B2
  can0       6D0   [8]  09 00 00 0B 74 40 00 A0
  can0       0C0   [8]  00 00 00 00 01 00 00 00
  can0       037   [1]  B2
  can0       038   [1]  11
  can0       080   [4]  05 0F 00 98
  can0  1839F380   [8]  00 0F 11 10 24 0A 15 B4
  can0  1838F380   [8]  00 1E 10 1E 0F 11 0A 15
  can0  18EEFF80   [8]  F3 00 80 F3 00 40 1E 90
  can0       037   [1]  B2
  can0       038   [1]  11
  can0       001   [2]  A2 02
  can0       000   [2]  00 00
  can0       002   [2]  7C 01
  can0       003   [2]  00 00
  can0       0C0   [8]  00 00 00 00 01 00 00 00
  can0       037   [1]  B2
  can0       038   [1]  11
  can0       6D0   [8]  0A 00 00 0B 74 00 0F 70
  can0       037   [1]  B2
  can0       038   [1]  11
  can0       0C0   [8]  00 00 00 00 01 00 00 00
  can0       037   [1]  B2
  can0       038   [1]  11
  can0       6D0   [8]  0B 00 00 0B 74 00 32 94
  can0       001   [2]  A2 02
  can0       000   [2]  00 00
  can0       002   [2]  7C 01
  can0       003   [2]  01 00
  can0       038   [1]  11
  can0       037   [1]  B2
  can0       6D0   [8]  0C 00 00 0B 74 00 00 63
  can0       080   [8]  00 00 00 00 00 00 00 88
  can0       0C0   [8]  00 00 00 00 01 00 00 00
  can0       037   [1]  B2
  can0       038   [1]  11
  can0       037   [1]  B2
  can0       038   [1]  11
  can0       0C0   [8]  00 00 00 00 01 00 00 00
  can0       037   [1]  B2
  can0       038   [1]  11
  can0       6D0   [8]  0D 00 00 0B 74 0B 74 E3
  can0       001   [2]  A2 02
  can0       000   [2]  00 00
  can0       002   [2]  7C 01
  can0       003   [2]  01 00
  can0       037   [1]  B2
  can0       038   [1]  11
  can0       0C0   [8]  00 00 00 00 01 00 00 00
  can0       037   [1]  B2
  can0       038   [1]  11
  can0       037   [1]  B2
  can0       038   [1]  11
  can0       6D0   [8]  0E 00 00 0B 74 0B 74 E4
  can0       0C0   [8]  00 00 00 00 01 00 00 00
  can0       6B1   [8]  00 32 00 0F 11 0F 00 1A
  can0       038   [1]  11
  can0       037   [1]  B2
  can0       001   [2]  A2 02
  can0       000   [2]  00 00
  can0       002   [2]  7B 01
  can0       003   [2]  01 00
  can0       080   [4]  06 11 00 9B
  can0  1839F380   [8]  00 0F 11 10 24 16 15 C0
  can0  1838F380   [8]  00 1F 10 1F 0F 11 16 15
  can0       037   [1]  B2
  can0       038   [1]  11
  can0       0C0   [8]  00 00 00 00 01 00 00 00
  can0       6D0   [8]  0F 00 00 0B 74 00 B2 18
  can0       037   [1]  B2
  can0       038   [1]  11
  can0       6D0   [8]  10 00 00 0B 74 00 97 FE
  can0       0C0   [8]  00 00 00 00 01 00 00 00
  can0       037   [1]  B2
  can0       038   [1]  11
  can0       037   [1]  B2
  can0       038   [1]  11
  can0       6D0   [8]  11 00 00 0B 74 01 96 FF
  can0       001   [2]  A2 02
  can0       000   [2]  00 00
  can0       002   [2]  7C 01
  can0       003   [2]  01 00
  can0       0C0   [8]  00 00 00 00 01 00 00 00
  can0       037   [1]  B2
  can0       038   [1]  11
  can0       6D0   [8]  12 00 00 0B 74 00 2A 93
  can0       080   [8]  00 00 FF FF 00 00 00 86
  can0       037   [1]  B2
  can0       038   [1]  11
  can0       0C0   [8]  00 00 00 00 01 00 00 00
  can0       037   [1]  B2
  can0       038   [1]  11
  can0       001   [2]  A2 02
  can0       000   [2]  00 00
  can0       002   [2]  7D 01
  can0       003   [2]  01 00
  can0       038   [1]  11
  can0       037   [1]  B2
  can0       0C0   [8]  00 00 00 00 01 00 00 00
  can0       037   [1]  B2
  can0       038   [1]  11
  can0       6D0   [8]  13 00 00 0B 74 00 64 CE
  can0       037   [1]  B2
  can0       038   [1]  11
  can0       6D0   [8]  14 00 00 0B 74 72 8B 68
  can0       0C0   [8]  00 00 00 00 01 00 00 00
  can0       037   [1]  B2
  can0       038   [1]  11
  can0       6D0   [8]  15 00 00 0B 74 7F FF EA
  can0       001   [2]  A2 02
  can0       000   [2]  00 00
  can0       002   [2]  7D 01
  can0       003   [2]  01 00
  can0       037   [1]  B2
  can0       038   [1]  11
  can0       6D0   [8]  16 00 00 0B 74 0B D0 48
  can0       0C0   [8]  00 00 00 00 01 00 00 00
  can0       6B1   [8]  00 32 00 0F 11 0F 00 1A
  can0       038   [1]  11
  can0       037   [1]  B2
  can0       6D0   [8]  17 00 00 0B 74 07 08 7D
  can0       080   [4]  05 0F 00 98
  can0  1839F380   [8]  00 0F 11 10 24 0A 15 B4
  can0  1838F380   [8]  00 20 11 20 0F 11 0A 15
  can0  18EEFF80   [8]  F3 00 80 F3 00 40 1E 90
  can0       037   [1]  B2
  can0       038   [1]  11
  can0       6D0   [8]  18 00 00 0B 74 00 19 88
  can0       0C0   [8]  00 00 00 00 01 00 00 00
  can0       037   [1]  B2
  can0       038   [1]  11
  can0       6D0   [8]  19 00 00 0B 74 04 04 78
  can0       001   [2]  A1 02
  can0       000   [2]  00 00
  can0       002   [2]  7D 01
  can0       003   [2]  01 00
  can0       037   [1]  B2
  can0       038   [1]  11
  can0       0C0   [8]  00 00 00 00 01 00 00 00
  can0       037   [1]  B2
  can0       038   [1]  11
  can0       0C0   [8]  00 00 00 00 01 00 00 00
  can0       037   [1]  B2
  can0       038   [1]  11
  can0       080   [8]  00 00 00 00 FF FF 00 86
  can0       037   [1]  B2
  can0       038   [1]  11
  can0       6D0   [8]  1A 00 00 0B 74 00 2D 9E
  can0       001   [2]  A2 02
  can0       000   [2]  00 00
  can0       002   [2]  7D 01
  can0       003   [2]  02 00
  can0       0C0   [8]  00 00 00 00 01 00 00 00
  can0       037   [1]  B2
  can0       038   [1]  11
  can0       6D0   [8]  1B 00 00 0B 74 00 85 F7
  can0       037   [1]  B2
  can0       038   [1]  11
  can0       0C0   [8]  00 00 00 00 01 00 00 00
  can0       037   [1]  B2
  can0       038   [1]  11
  can0       6D0   [8]  1C 00 00 0B 74 00 4B BE
  can0       001   [2]  A2 02
  can0       000   [2]  00 00
  can0       002   [2]  7C 01
  can0       003   [2]  01 00
  can0       038   [1]  11
  can0       037   [1]  B2
  can0       0C0   [8]  00 00 00 00 01 00 00 00
  can0       037   [1]  B2
  can0       038   [1]  11
  can0       6D0   [8]  1D 00 00 0B 74 00 14 88
  can0       037   [1]  B2
  can0       038   [1]  11
  can0       6D0   [8]  1E 00 00 0B 74 00 00 75
  can0       0C0   [8]  00 00 00 00 01 00 00 00
  can0       080   [4]  06 11 00 9B
  can0  1839F380   [8]  00 0F 11 10 24 0A 15 B4
  can0  1838F380   [8]  00 21 10 21 0F 11 0A 15
  can0       6B1   [8]  00 32 00 0F 11 0F 00 1A
  can0       038   [1]  11
  can0       037   [1]  B2
  can0       001   [2]  A2 02
  can0       000   [2]  00 00
  can0       002   [2]  7C 01
  can0       003   [2]  01 00
  can0       037   [1]  B2
  can0       038   [1]  11
  can0       0C0   [8]  00 00 00 00 01 00 00 00
  can0       037   [1]  B2
  can0       038   [1]  11
  can0       6D0   [8]  1F 00 00 0B 74 00 14 8A
  can0       037   [1]  B2
  can0       038   [1]  11
  can0       0C0   [8]  00 00 00 00 01 00 00 00
  can0       037   [1]  B2
  can0       038   [1]  11
  can0       6D0   [8]  20 00 00 0B 74 00 08 7F
  can0       001   [2]  A2 02
  can0       000   [2]  00 00
  can0       002   [2]  7C 01
  can0       003   [2]  01 00
  can0       080   [8]  00 00 00 00 00 00 00 88
  can0       037   [1]  B2
  can0       038   [1]  11
  can0       0C0   [8]  00 00 00 00 01 00 00 00
  can0       6D0   [8]  21 00 00 0B 74 00 00 78
  can0       037   [1]  B2
  can0       038   [1]  11
  can0       0C0   [8]  00 00 00 00 01 00 00 00
  can0       037   [1]  B2
  can0       038   [1]  11
  can0       6D0   [8]  22 00 00 0B 74 00 00 79
  can0       037   [1]  B2
  can0       038   [1]  11
  can0       6D0   [8]  23 00 00 0B 74 0B 74 F9
  can0       001   [2]  A2 02
  can0       000   [2]  00 00
  can0       002   [2]  7D 01
  can0       003   [2]  01 00
  can0       0C0   [8]  00 00 00 00 01 00 00 00
  can0       037   [1]  B2
  can0       038   [1]  11
  can0       037   [1]  B2
  can0       038   [1]  11
  can0       0C0   [8]  00 00 00 00 01 00 00 00
  can0       037   [1]  B2
  can0       038   [1]  11
  can0       6D0   [8]  24 00 00 0B 74 00 AC 27
  can0       001   [2]  A2 02
  can0       000   [2]  00 00
  can0       002   [2]  7D 01
  can0       003   [2]  01 00
  can0       038   [1]  11
  can0       037   [1]  B2
  can0       080   [4]  05 0F 00 98
  can0  1839F380   [8]  00 0F 11 10 24 0A 15 B4
  can0  1838F380   [8]  00 22 11 22 0F 11 0A 15
  can0       0C0   [8]  00 00 00 00 01 00 00 00
  can0  18EEFF80   [8]  F3 00 80 F3 00 40 1E 90
  can0       6B1   [8]  00 32 00 0F 11 0F 00 1A
  can0       038   [1]  11
  can0       037   [1]  B2
  can0       6D0   [8]  25 00 00 0B 74 00 0E 8A
  can0       037   [1]  B2
  can0       038   [1]  11
  can0       6D0   [8]  26 00 00 0B 74 B2 60 8F
  can0       0C0   [8]  00 00 00 00 01 00 00 00
  can0       037   [1]  B2
  can0       038   [1]  11
  can0       6D0   [8]  27 00 00 0B 74 00 00 7E
  can0       001   [2]  A3 02
  can0       000   [2]  00 00
  can0       002   [2]  7D 01
  can0       003   [2]  00 00
  can0       037   [1]  B2
  can0       038   [1]  11
  can0       6D0   [8]  28 00 00 0B 74 00 11 90
  can0       0C0   [8]  00 00 00 00 01 00 00 00
  can0       037   [1]  B2
  can0       038   [1]  11
  can0       6D0   [8]  29 00 00 0B 74 00 0F 8F
  can0       080   [8]  00 00 00 00 00 00 00 88
  can0       037   [1]  B2
  can0       038   [1]  11
  can0       0C0   [8]  00 00 00 00 01 00 00 00
  can0       037   [1]  B2
  can0       038   [1]  11
  can0       001   [2]  A2 02
  can0       000   [2]  00 00
  can0       002   [2]  7C 01
  can0       003   [2]  01 00
  can0       037   [1]  B2
  can0       038   [1]  11
  can0       0C0   [8]  00 00 00 00 01 00 00 00
  can0       037   [1]  B2
  can0       038   [1]  11
  can0       0C0   [8]  00 00 00 00 01 00 00 00
  can0       037   [1]  B2
  can0       038   [1]  11
  can0       6D0   [8]  2A 00 00 0B 74 00 10 91
  can0       037   [1]  B2
  can0       038   [1]  11
  can0       001   [2]  A2 02
  can0       000   [2]  00 00
  can0       002   [2]  7C 01
  can0       003   [2]  01 00
  can0       0C0   [8]  00 00 00 00 01 00 00 00
  can0       037   [1]  B2
  can0       038   [1]  11
  can0       6D0   [8]  2B 00 00 0B 74 00 00 82
  can0       080   [4]  06 11 00 9B
  can0  1839F380   [8]  00 0F 11 10 24 16 15 C0
  can0  1838F380   [8]  00 23 10 23 0F 11 16 15
  can0       037   [1]  B2
  can0       038   [1]  11
  can0       0C0   [8]  00 00 00 00 01 00 00 00
  can0       6B1   [8]  00 32 00 0F 11 0F 00 1A
  can0       038   [1]  11
  can0       037   [1]  B2
  can0       6D0   [8]  2C 00 00 0B 74 00 00 83
  can0       001   [2]  A2 02
  can0       000   [2]  00 00
  can0       002   [2]  7C 01
  can0       003   [2]  01 00
  can0       038   [1]  11
  can0       037   [1]  B2
  can0       6D0   [8]  2D 00 00 0B 74 00 13 97
  can0       0C0   [8]  00 00 00 00 01 00 00 00
  can0       037   [1]  B2
  can0       038   [1]  11
  can0       037   [1]  B2
  can0       038   [1]  11
  can0       0C0   [8]  00 00 00 00 01 00 00 00
  can0       080   [8]  00 00 00 00 01 00 00 89
  can0       037   [1]  B2
  can0       038   [1]  11
  can0       6D0   [8]  2E 00 00 0B 74 00 6F F4
  can0       001   [2]  A2 02
  can0       000   [2]  00 00
  can0       002   [2]  7C 01
  can0       003   [2]  01 00
  can0       037   [1]  B2
  can0       038   [1]  11
  can0       0C0   [8]  00 00 00 00 01 00 00 00
  can0       037   [1]  B2
  can0       038   [1]  11
  can0       037   [1]  B2
  can0       038   [1]  11
  can0       6D0   [8]  2F 00 00 0B 74 00 7A 00
  can0       0C0   [8]  00 00 00 00 01 00 00 00
  can0       037   [1]  B2
  can0       038   [1]  11
  can0       6D0   [8]  30 00 00 0B 74 00 01 88
  can0       001   [2]  A2 02
  can0       000   [2]  00 00
  can0       002   [2]  7D 01
  can0       003   [2]  01 00
  can0       037   [1]  B2
  can0       038   [1]  11
  can0       0C0   [8]  00 00 00 00 01 00 00 00
  can0       6D0   [8]  31 00 00 0B 74 00 00 88
  can0       037   [1]  B2
  can0       038   [1]  11
  can0       6D0   [8]  32 00 00 0B 74 9C CB F0
  can0       0C0   [8]  00 00 00 00 01 00 00 00
  can0       037   [1]  B2
  can0       038   [1]  11
  can0       080   [4]  05 0F 00 98
  can0  1839F380   [8]  00 0F 11 10 24 0A 15 B4
  can0  1838F380   [8]  00 24 11 24 0F 11 0A 15
  can0  18EEFF80   [8]  F3 00 80 F3 00 40 1E 90
  can0       037   [1]  B2
  can0       038   [1]  11
  can0       001   [2]  A2 02
  can0       000   [2]  00 00
  can0       002   [2]  7D 01
  can0       003   [2]  03 00
  can0       0C0   [8]  00 00 00 00 01 00 00 00
  can0       6B1   [8]  00 32 00 0F 11 0F 00 1A
  can0       038   [1]  11
  can0       037   [1]  B2
  can0       6D0   [8]  33 00 00 0B 74 9F 7F A8
  can0       037   [1]  B2
  can0       038   [1]  11
  can0       0C0   [8]  00 00 00 00 01 00 00 00
  can0       037   [1]  B2
  can0       038   [1]  11
  can0       6D0   [8]  34 00 00 0B 74 9F 17 41
  can0       001   [2]  A2 02
  can0       000   [2]  00 00
  can0       002   [2]  7D 01
  can0       003   [2]  01 00
  can0       038   [1]  11
  can0       037   [1]  B2
  can0       6D0   [8]  35 00 00 0B 74 9C CA F2
  can0       080   [8]  00 00 00 00 00 00 00 88
  can0       0C0   [8]  00 00 00 00 01 00 00 00
  can0  001   [2]  A2 02
  can0  000   [2]  00 00
  can0  002   [2]  7B 01
  can0  003   [2]  01 00
  can0  038   [1]  11
  can0  037   [1]  B2
  can0  0C0   [8]  00 00 00 00 01 00 00 00
  can0  037   [1]  B2
  can0  038   [1]  11
  can0  037   [1]  B2
  can0  038   [1]  11
  can0  6D0   [8]  22 00 00 0B 74 00 00 79
  can0  0C0   [8]  00 00 00 00 01 00 00 00
  can0  080   [4]  06 11 00 9B
  can0  1839F380   [8]  00 0F 11 10 24 16 15 C0
  can0  1838F380   [8]  00 07 11 07 0F 11 16 15
  can0       037   [1]  B2
  can0       038   [1]  11
  can0       6D0   [8]  23 00 00 0B 74 0B 74 F9
  can0       001   [2]  A2 02
  can0       000   [2]  00 00
  can0       002   [2]  7D 01
  can0       003   [2]  04 00
  can0       037   [1]  B2
  can0       038   [1]  11
  can0       6D0   [8]  24 00 00 0B 74 00 AC 27
  can0       0C0   [8]  00 00 00 00 01 00 00 00
  can0       037   [1]  B2
  can0       038   [1]  11
  can0       6D0   [8]  25 00 00 0B 74 00 0E 8A
  can0       6B1   [8]  00 32 00 0F 11 0F 00 1A
  can0       038   [1]  11
  can0       037   [1]  B2
  can0       6D0   [8]  26 00 00 0B 74 B2 69 98
  can0       0C0   [8]  00 00 00 00 01 00 00 00
  can0       037   [1]  B2
  can0       038   [1]  11
  can0       001   [2]  A2 02
  can0       000   [2]  00 00
  can0       002   [2]  7C 01
  can0       003   [2]  01 00
  can0       080   [8]  00 00 00 00 00 00 00 88
  can0       037   [1]  B2
  can0       038   [1]  11
  can0       0C0   [8]  00 00 00 00 01 00 00 00
  can0       6D0   [8]  27 00 00 0B 74 00 00 7E
  can0       037   [1]  B2
  can0       038   [1]  11
  can0       6D0   [8]  28 00 00 0B 74 00 11 90
  can0       0C0   [8]  00 00 00 00 01 00 00 00
  can0       037   [1]  B2
  can0       038   [1]  11
  can0       037   [1]  B2
  can0       038   [1]  11
  can0       001   [2]  A1 02
  can0       000   [2]  00 00
  can0       002   [2]  7C 01
  can0       003   [2]  02 00
  can0       0C0   [8]  00 00 00 00 01 00 00 00
  can0       037   [1]  B2
  can0       038   [1]  11
  can0       037   [1]  B2
  can0       038   [1]  11
  can0       6D0   [8]  29 00 00 0B 74 00 0F 8F
  can0       0C0   [8]  00 00 00 00 01 00 00 00
  can0       037   [1]  B2
  can0       038   [1]  11
  can0       001   [2]  A2 02
  can0       000   [2]  00 00
  can0       002   [2]  7E 01
  can0       003   [2]  05 00
  can0       038   [1]  11
  can0       037   [1]  B2
  can0       6D0   [8]  2A 00 00 0B 74 00 10 91
  can0       080   [4]  05 0F 00 98
  can0  1839F380   [8]  00 0F 11 10 24 0A 15 B4
  can0  1838F380   [8]  00 08 0F 08 0F 11 0A 15
  can0       0C0   [8]  00 00 00 00 01 00 00 00
  can0  18EEFF80   [8]  F3 00 80 F3 00 40 1E 90
  can0       037   [1]  B2
  can0       038   [1]  11
  can0       6D0   [8]  2B 00 00 0B 74 00 00 82
  can0       037   [1]  B2
  can0       038   [1]  11
  can0       6D0   [8]  2C 00 00 0B 74 00 00 83
  can0       0C0   [8]  00 00 00 00 01 00 00 00
  can0       037   [1]  B2
  can0       038   [1]  11
  can0       6D0   [8]  2D 00 00 0B 74 00 13 97
  can0       001   [2]  A2 02
  can0       000   [2]  00 00
  can0       002   [2]  7E 01
  can0       003   [2]  00 00
  can0       6B1   [8]  00 32 00 0F 11 0F 00 1A
  can0       038   [1]  11
  can0       037   [1]  B2
  can0       0C0   [8]  00 00 00 00 01 00 00 00
  can0       037   [1]  B2
  can0       038   [1]  11
  can0       080   [8]  00 00 00 00 00 00 00 88
  can0       037   [1]  B2
  can0       038   [1]  11
  can0       0C0   [8]  00 00 00 00 01 00 00 00
  can0       037   [1]  B2
  can0       038   [1]  11
  can0       6D0   [8]  2E 00 00 0B 74 00 6F F4
  can0       001   [2]  A2 02
  can0       000   [2]  00 00
  can0       002   [2]  7D 01
  can0       003   [2]  01 00
  can0       037   [1]  B2
  can0       038   [1]  11
  can0       0C0   [8]  00 00 00 00 01 00 00 00
  can0       037   [1]  B2
  can0       038   [1]  11
  can0       6D0   [8]  2F 00 00 0B 74 00 7A 00
  can0       0C0   [8]  00 00 00 00 01 00 00 00
  can0       037   [1]  B2
  can0       038   [1]  11
  can0       6D0   [8]  30 00 00 0B 74 00 01 88
  can0       037   [1]  B2
  can0       038   [1]  11
  can0       6D0   [8]  31 00 00 0B 74 00 00 88
  can0       001   [2]  A2 02
  can0       000   [2]  00 00
  can0       002   [2]  7D 01
  can0       003   [2]  01 00
  can0       0C0   [8]  00 00 00 00 01 00 00 00
  can0       037   [1]  B2
  can0       038   [1]  11
  can0       6D0   [8]  32 00 00 0B 74 9C C9 EE
  can0       080   [4]  06 11 00 9B
  can0  1839F380   [8]  00 0F 11 10 24 0A 15 B4
  can0  1838F380   [8]  00 09 10 09 0F 11 0A 15
  can0       037   [1]  B2
  can0       038   [1]  11
  can0       6D0   [8]  33 00 00 0B 74 9F 80 A9
  can0       0C0   [8]  00 00 00 00 01 00 00 00
  can0       037   [1]  B2
  can0       038   [1]  11
  can0       001   [2]  A2 02
  can0       000   [2]  00 00
  can0       002   [2]  7D 01
  can0       003   [2]  00 00
  can0       038   [1]  11
  can0       037   [1]  B2
  can0       0C0   [8]  00 00 00 00 01 00 00 00
  can0       037   [1]  B2
  can0       038   [1]  11
  can0       6D0   [8]  34 00 00 0B 74 9F 17 41
  can0       6B1   [8]  00 32 00 0F 11 0F 00 1A
  can0       038   [1]  11
  can0       037   [1]  B2
  can0       0C0   [8]  00 00 00 00 01 00 00 00
  can0       080   [8]  00 00 00 00 01 00 00 89
  can0       037   [1]  B2
  can0       038   [1]  11
  can0       6D0   [8]  35 00 00 0B 74 9C CB F3
  can0       001   [2]  A2 02
  can0       000   [2]  00 00
  can0       002   [2]  7D 01
  can0       003   [2]  01 00
  can0       037   [1]  B2
  can0       038   [1]  11
  can0       6D0   [8]  36 00 00 0B 74 9F 80 AC
  can0       0C0   [8]  00 00 00 00 01 00 00 00
  can0       037   [1]  B2
  can0       038   [1]  11
  can0       037   [1]  B2
  can0       038   [1]  11
  can0       6D0   [8]  37 00 00 0B 74 9F 16 43
  can0       0C0   [8]  00 00 00 00 01 00 00 00
  can0       037   [1]  B2
  can0       038   [1]  11
  can0       6D0   [8]  38 00 00 0B 74 02 34 C5
  can0       001   [2]  A2 02
  can0       000   [2]  00 00
  can0       002   [2]  7D 01
  can0       003   [2]  04 00
  can0       037   [1]  B2
  can0       038   [1]  11
  can0       0C0   [8]  00 00 00 00 01 00 00 00
  can0       037   [1]  B2
  can0       038   [1]  11
  can0       0C0   [8]  00 00 00 00 01 00 00 00
  can0       037   [1]  B2
  can0       038   [1]  11
  can0       6D0   [8]  39 00 00 0B 74 02 34 C6
  can0       080   [4]  05 0F 00 98
  can0  1839F380   [8]  00 0F 11 10 24 0A 15 B4
  can0  1838F380   [8]  00 0A 11 0A 0F 11 0A 15
  can0  18EEFF80   [8]  F3 00 80 F3 00 40 1E 90
  can0       037   [1]  B2
  can0       038   [1]  11
  can0       001   [2]  A3 02
  can0       000   [2]  00 00
  can0       002   [2]  7B 01
  can0       003   [2]  01 00
  can0       0C0   [8]  00 00 00 00 01 00 00 00
  can0       037   [1]  B2
  can0       038   [1]  11
  can0       6D0   [8]  3A 00 00 0B 74 02 34 C7
  can0       037   [1]  B2
  can0       038   [1]  11
  can0       6D0   [8]  3B 00 00 0B 74 A4 10 46
  can0       0C0   [8]  00 00 00 00 01 00 00 00
  can0       037   [1]  B2
  can0       038   [1]  11
  can0       6D0   [8]  3C 00 00 0B 74 61 A8 9C
  can0       001   [2]  A2 02
  can0       000   [2]  00 00
  can0       002   [2]  7D 01
  can0       003   [2]  02 00
  can0       038   [1]  11
  can0       037   [1]  B2
  can0       6B1   [8]  00 32 00 0F 11 0F 00 1A
  can0       6D0   [8]  3D 00 00 0B 74 00 23 B7
  can0       080   [8]  00 00 00 00 00 00 00 88
  can0       0C0   [8]  00 00 00 00 01 00 00 00
  can0       037   [1]  B2
  can0       038   [1]  11
  can0       6D0   [8]  3E 00 00 0B 74 00 17 AC
  can0       037   [1]  B2
  can0       038   [1]  11
  can0       0C0   [8]  00 00 00 00 01 00 00 00
  can0       037   [1]  B2
  can0       038   [1]  11
  can0       001   [2]  A2 02
  can0       000   [2]  00 00
  can0       002   [2]  7C 01
  can0       003   [2]  01 00
  can0       037   [1]  B2
  can0       038   [1]  11
  can0       6D0   [8]  3F 00 00 0B 74 00 23 B9
  can0       0C0   [8]  00 00 00 00 01 00 00 00
  can0       037   [1]  B2
  can0       038   [1]  11
  can0       037   [1]  B2
  can0       038   [1]  11
  can0       6D0   [8]  40 00 00 0B 74 00 17 AE
  can0       0C0   [8]  00 00 00 00 01 00 00 00
  can0       037   [1]  B2
  can0       038   [1]  11
  can0       6D0   [8]  41 00 00 0B 74 00 01 99
  can0       001   [2]  A2 02
  can0       000   [2]  00 00
  can0       002   [2]  7D 01
  can0       003   [2]  01 00
  can0       080   [4]  06 11 00 9B
  can0  1839F380   [8]  00 0F 11 10 24 0A 15 B4
  can0  1838F380   [8]  00 0B 11 0B 0F 11 0A 15
  can0       037   [1]  B2
  can0       038   [1]  11
  can0       0C0   [8]  00 00 00 00 01 00 00 00
  can0       037   [1]  B2
  can0       038   [1]  11
  can0       6D0   [8]  42 00 00 0B 74 00 01 9A
  can0       0C0   [8]  00 00 00 00 01 00 00 00
  can0       037   [1]  B2
  can0       038   [1]  11
  can0       6D0   [8]  43 00 00 0B 74 00 97 31
  can0       037   [1]  B2
  can0       038   [1]  11
  can0       001   [2]  A2 02
  can0       000   [2]  00 00
  can0       002   [2]  7D 01
  can0       003   [2]  01 00
  can0       0C0   [8]  00 00 00 00 01 00 00 00
  can0       037   [1]  B2
  can0       038   [1]  11
  can0       080   [8]  00 00 00 00 FF FF 00 86
  can0       6B1   [8]  00 32 00 0F 11 0F 00 1A
  can0       038   [1]  11
  can0       037   [1]  B2
  can0       6D0   [8]  44 00 00 0B 74 00 AA 45
  can0       0C0   [8]  00 00 00 00 01 00 00 00
  can0       037   [1]  B2
  can0       038   [1]  11
  can0       001   [2]  A3 02
  can0       000   [2]  00 00
  can0       002   [2]  7D 01
  can0       003   [2]  01 00
  can0       038   [1]  11
  can0       037   [1]  B2
  can0       0C0   [8]  00 00 00 00 01 00 00 00
  can0       037   [1]  B2
  can0       038   [1]  11
  can0       6D0   [8]  45 00 00 0B 74 00 B2 4E
  can0       037   [1]  B2
  can0       038   [1]  11
  can0       0C0   [8]  00 00 00 00 01 00 00 00
  can0       037   [1]  B2
  can0       038   [1]  11
  can0       6D0   [8]  46 00 00 0B 74 00 6F 0C
  can0       001   [2]  A2 02
  can0       000   [2]  00 00
  can0       002   [2]  7A 01
  can0       003   [2]  01 00
  can0       037   [1]  B2
  can0       038   [1]  11
  can0       6D0   [8]  47 00 00 0B 74 07 F9 9E
  can0       0C0   [8]  00 00 00 00 01 00 00 00
  can0       037   [1]  B2
  can0       038   [1]  11
  can0       080   [4]  05 0F 00 98
  can0  1839F380   [8]  00 0F 11 10 24 0A 15 B4
  can0  1838F380   [8]  00 0C 10 0C 0F 11 0A 15
  can0  18EEFF80   [8]  F3 00 80 F3 00 40 1E 90
  can0       037   [1]  B2
  can0       038   [1]  11
  can0       0C0   [8]  00 00 00 00 01 00 00 00
  can0       037   [1]  B2
  can0       038   [1]  11
  can0       6D0   [8]  48 00 00 0B 74 07 FA A0
  can0       001   [2]  A2 02
  can0       000   [2]  00 00
  can0       002   [2]  7C 01
  can0       003   [2]  01 00
  can0       037   [1]  B2
  can0       038   [1]  11
  can0       0C0   [8]  00 00 00 00 01 00 00 00
  can0       6D0   [8]  49 00 00 0B 74 00 00 A0
  can0       037   [1]  B2
  can0       038   [1]  11
  can0       6D0   [8]  4A 00 00 0B 74 00 00 A1
  can0       0C0   [8]  00 00 00 00 01 00 00 00
  can0       037   [1]  B2
  can0       038   [1]  11
  can0       6D0   [8]  4B 00 00 0B 74 00 00 A2
  can0       080   [8]  00 00 00 00 FF FF 00 86
  can0       6B1   [8]  00 32 00 0F 11 0F 00 1A
  can0       038   [1]  11
  can0       037   [1]  B2
  can0       6D0   [8]  4C 00 00 0B 74 00 00 A3
  can0       001   [2]  A2 02
  can0       000   [2]  00 00
  can0       002   [2]  7C 01
  can0       003   [2]  01 00
  can0       0C0   [8]  00 00 00 00 01 00 00 00
  can0       037   [1]  B2
  can0       038   [1]  11
  can0       6D0   [8]  4D 00 00 0B 74 00 00 A4
  can0       037   [1]  B2
  can0       038   [1]  11
  can0       0C0   [8]  00 00 00 00 01 00 00 00
  can0       037   [1]  B2
  can0       038   [1]  11
  can0       6D0   [8]  4E 00 00 0B 74 00 01 A6
  can0       001   [2]  A0 02
  can0       000   [2]  00 00
  can0       002   [2]  7D 01
  can0       003   [2]  01 00
  can0       038   [1]  11
  can0       037   [1]  B2
  can0       0C0   [8]  00 00 00 00 01 00 00 00
  can0       037   [1]  B2
  can0       038   [1]  11
  can0       037   [1]  B2
  can0       038   [1]  11
  can0       0C0   [8]  00 00 00 00 01 00 00 00
  can0       080   [4]  06 11 00 9B
  can0  1839F380   [8]  00 0F 11 10 24 16 15 C0
  can0  1838F380   [8]  00 0D 11 0D 0F 11 16 15
  can0       037   [1]  B2
  can0       038   [1]  11
  can0       6D0   [8]  4F 00 00 0B 74 50 80 76
  can0       001   [2]  A2 02
  can0       000   [2]  00 00
  can0       002   [2]  7D 01
  can0       003   [2]  01 00
  can0       037   [1]  B2
  can0       038   [1]  11
  can0       0C0   [8]  00 00 00 00 01 00 00 00
  can0       037   [1]  B2
  can0       038   [1]  11
  can0       6D0   [8]  50 00 00 0B 74 4F 31 27
  can0       037   [1]  B2
  can0       038   [1]  11
  can0       6D0   [8]  51 00 00 0B 74 21 31 FA
  can0       0C0   [8]  00 00 00 00 01 00 00 00
  can0       037   [1]  B2
  can0       038   [1]  11
  can0       6D0   [8]  52 00 00 0B 74 00 00 A9
  can0       001   [2]  A2 02
  can0       000   [2]  00 00
  can0       002   [2]  7D 01
  can0       003   [2]  01 00
  can0       080   [8]  00 00 00 00 00 00 00 88
  can0       037   [1]  B2
  can0       038   [1]  11
  can0       0C0   [8]  00 00 00 00 01 00 00 00
  can0       6D0   [8]  53 00 00 0B 74 00 00 AA
  can0       6B1   [8]  00 32 00 0F 11 0F 00 1A
  can0       038   [1]  11
  can0       037   [1]  B2
  can0       6D0   [8]  54 00 00 0B 74 00 00 AB
  can0       0C0   [8]  00 00 00 00 01 00 00 00
  can0       037   [1]  B2
  can0       038   [1]  11
  can0       037   [1]  B2
  can0       038   [1]  11
  can0       001   [2]  A2 02
  can0       000   [2]  00 00
  can0       002   [2]  7C 01
  can0       003   [2]  01 00
  can0       0C0   [8]  00 00 00 00 01 00 00 00
  can0       037   [1]  B2
  can0       038   [1]  11
  can0       6D0   [8]  55 00 00 0B 74 00 00 AC
  can0       037   [1]  B2
  can0       038   [1]  11
  can0       0C0   [8]  00 00 00 00 01 00 00 00
  can0       037   [1]  B2
  can0       038   [1]  11
  can0       6D0   [8]  56 00 00 0B 74 00 00 AD
  can0       001   [2]  A2 02
  can0       000   [2]  00 00
  can0       002   [2]  7D 01
  can0       003   [2]  03 00
  can0       038   [1]  11
  can0       037   [1]  B2
  can0       6D0   [8]  57 00 00 0B 74 00 00 AE
  can0       080   [4]  05 0F 00 98
  can0  1839F380   [8]  00 0F 11 10 24 0A 15 B4
  can0  1838F380   [8]  00 0E 11 0E 0F 11 0A 15
  can0       0C0   [8]  00 00 00 00 01 00 00 00
  can0  18EEFF80   [8]  F3 00 80 F3 00 40 1E 90
  can0       037   [1]  B2
  can0       038   [1]  11
  can0       6D0   [8]  58 00 00 0B 74 FF D8 86
  can0       037   [1]  B2
  can0       038   [1]  11
  can0       6D0   [8]  59 00 00 0B 74 00 00 B0
  can0       0C0   [8]  00 00 00 00 01 00 00 00
  can0       037   [1]  B2
  can0       038   [1]  11
  can0       6D0   [8]  5A 00 00 0B 74 00 00 B1
  can0       001   [2]  A3 02
  can0       000   [2]  00 00
  can0       002   [2]  7D 01
  can0       003   [2]  01 00
  can0       037   [1]  B2
  can0       038   [1]  11
  can0       0C0   [8]  00 00 00 00 01 00 00 00
  can0       037   [1]  B2
  can0       038   [1]  11
  can0       080   [8]  00 00 00 00 FF FF 00 86
  can0       037   [1]  B2
  can0       038   [1]  11
  can0       0C0   [8]  00 00 00 00 01 00 00 00
  can0       6B1   [8]  00 32 00 0F 11 0F 00 1A
  can0       038   [1]  11
  can0       037   [1]  B2
  can0       6D0   [8]  5B 00 00 0B 74 00 00 B2
  can0       001   [2]  A2 02
  can0       000   [2]  00 00
  can0       002   [2]  7D 01
  can0       003   [2]  03 00
  can0       037   [1]  B2
  can0       038   [1]  11
  can0       0C0   [8]  00 00 00 00 01 00 00 00
  can0       037   [1]  B2
  can0       038   [1]  11
  can0       0C0   [8]  00 00 00 00 01 00 00 00
  can0       037   [1]  B2
  can0       038   [1]  11
  can0       6D0   [8]  5C 00 00 0B 74 00 00 B3
  can0       037   [1]  B2
  can0       038   [1]  11
  can0       6D0   [8]  5D 00 00 0B 74 00 00 B4
  can0       001   [2]  A2 02
  can0       000   [2]  00 00
  can0       002   [2]  7D 01
  can0       003   [2]  03 00
  can0       0C0   [8]  00 00 00 00 01 00 00 00
  can0       037   [1]  B2
  can0       038   [1]  11
  can0       6D0   [8]  5E 00 00 0B 74 00 00 B5
  can0       080   [4]  06 11 00 9B
  can0  1839F380   [8]  00 0F 11 10 24 0A 15 B4
  can0  1838F380   [8]  00 0F 10 0F 0F 11 0A 15
  can0       037   [1]  B2
  can0       038   [1]  11
  can0       0C0   [8]  00 00 00 00 01 00 00 00
  can0       037   [1]  B2
  can0       038   [1]  11
  can0       001   [2]  A2 02
  can0       000   [2]  00 00
  can0       002   [2]  7D 01
  can0       003   [2]  02 00
  can0       038   [1]  11
  can0       037   [1]  B2
  can0       0C0   [8]  00 00 00 00 01 00 00 00
  can0       037   [1]  B2
  can0       038   [1]  11
  can0       6D0   [8]  5F 00 00 0B 74 00 00 B6
  can0       037   [1]  B2
  can0       038   [1]  11
  can0       0C0   [8]  00 00 00 00 01 00 00 00
  can0       080   [8]  00 00 00 00 01 00 00 89
  can0       037   [1]  B2
  can0       038   [1]  11
  can0       6D0   [8]  60 00 00 0B 74 00 00 B7
  can0       001   [2]  A2 02
  can0       000   [2]  00 00
  can0       002   [2]  7E 01
  can0       003   [2]  01 00
  can0       037   [1]  B2
  can0       038   [1]  11
  can0       6D0   [8]  61 00 00 0B 74 00 00 B8
  can0       0C0   [8]  00 00 00 00 01 00 00 00
  can0       6B1   [8]  00 32 00 0F 11 0F 00 1A
  can0       038   [1]  11
  can0       037   [1]  B2
  can0       037   [1]  B2
  can0       038   [1]  11
  can0       6D0   [8]  62 00 00 0B 74 00 00 B9
  can0       0C0   [8]  00 00 00 00 01 00 00 00
  can0       037   [1]  B2
  can0       038   [1]  11
  can0       6D0   [8]  63 00 00 0B 74 00 00 BA
  can0       001   [2]  A3 02
  can0       000   [2]  00 00
  can0       002   [2]  7B 01
  can0       003   [2]  00 00
  can0       037   [1]  B2
  can0       038   [1]  11
  can0       0C0   [8]  00 00 00 00 01 00 00 00
  can0       037   [1]  B2
  can0       038   [1]  11
  can0       0C0   [8]  00 00 00 00 01 00 00 00
  can0       037   [1]  B2
  can0       038   [1]  11
  can0       6D0   [8]  64 00 00 0B 74 00 00 BB
  can0       080   [4]  05 0F 00 98
  can0  1839F380   [8]  00 0F 11 10 24 0A 15 B4
  can0  1838F380   [8]  00 10 11 10 0F 11 0A 15
  can0  18EEFF80   [8]  F3 00 80 F3 00 40 1E 90
  can0       037   [1]  B2
  can0       038   [1]  11
  can0       001   [2]  A2 02
  can0       000   [2]  00 00
  can0       002   [2]  7B 01
  can0       003   [2]  01 00
  can0       0C0   [8]  00 00 00 00 01 00 00 00
  can0       037   [1]  B2
  can0       038   [1]  11
  can0       6D0   [8]  65 00 00 0B 74 00 00 BC
  can0       037   [1]  B2
  can0       038   [1]  11
  can0       6D0   [8]  66 00 00 0B 74 00 00 BD
  can0       0C0   [8]  00 00 00 00 01 00 00 00
  can0       037   [1]  B2
  can0       038   [1]  11
  can0       6D0   [8]  67 00 00 0B 74 FF FF BC
  can0       001   [2]  A2 02
  can0       000   [2]  00 00
  can0       002   [2]  7D 01
  can0       003   [2]  01 00
  can0       038   [1]  11
  can0       037   [1]  B2
  can0       6D0   [8]  68 00 00 0B 74 00 00 BF
  can0       080   [8]  00 00 00 00 00 00 00 88
  can0       0C0   [8]  00 00 00 00 01 00 00 00
  can0       037   [1]  B2
  can0       038   [1]  11
  can0       6D0   [8]  6E 00 00 0B 74 00 40 05
  can0       037   [1]  B2
  can0       038   [1]  11
  can0       0C0   [8]  00 00 00 00 01 00 00 00
  can0       6B1   [8]  00 32 00 0F 11 0F 00 1A
  can0       038   [1]  11
  can0       037   [1]  B2
  can0       001   [2]  A2 02
  can0       000   [2]  00 00
  can0       002   [2]  7D 01
  can0       003   [2]  01 00
  can0       037   [1]  B2
  can0       038   [1]  11
  can0       6D0   [8]  73 00 00 0B 74 07 F9 CA
  can0       0C0   [8]  00 00 00 00 01 00 00 00
  can0       037   [1]  B2
  can0       038   [1]  11
  can0       037   [1]  B2
  can0       038   [1]  11
  can0       6D0   [8]  74 00 00 0B 74 07 FA CC
  can0       0C0   [8]  00 00 00 00 01 00 00 00
  can0       037   [1]  B2
  can0       038   [1]  11
  can0       6D0   [8]  75 00 00 0B 74 00 00 CC
  can0       001   [2]  A2 02
  can0       000   [2]  00 00
  can0       002   [2]  7D 01
  can0       003   [2]  02 00
  can0       080   [4]  06 11 00 9B
  can0  1839F380   [8]  00 0F 11 10 24 16 15 C0
  can0  1838F380   [8]  00 11 11 11 0F 11 16 15
  can0       037   [1]  B2
  can0       038   [1]  11
  can0       0C0   [8]  00 00 00 00 01 00 00 00
  can0       037   [1]  B2
  can0       038   [1]  11
  can0       6D0   [8]  76 00 00 0B 74 00 00 CD
  can0       0C0   [8]  00 00 00 00 01 00 00 00
  can0       037   [1]  B2
  can0       038   [1]  11
  can0       6D0   [8]  77 00 00 0B 74 00 00 CE
  can0       037   [1]  B2
  can0       038   [1]  11
  can0       001   [2]  A2 02
  can0       000   [2]  00 00
  can0       002   [2]  7D 01
  can0       003   [2]  00 00
  can0       0C0   [8]  00 00 00 00 01 00 00 00
  can0       037   [1]  B2
  can0       038   [1]  11
  can0       080   [8]  00 00 FF FF FF FF 00 84
  can0       037   [1]  B2
  can0       038   [1]  11
  can0       6D0   [8]  78 00 00 0B 74 00 00 CF
  can0       0C0   [8]  00 00 00 00 01 00 00 00
  can0       037   [1]  B2
  can0       038   [1]  11
  can0       001   [2]  A2 02
  can0       000   [2]  00 00
  can0       002   [2]  7C 01
  can0       003   [2]  01 00
  can0       038   [1]  11
  can0       037   [1]  B2
  can0       0C0   [8]  00 00 00 00 01 00 00 00
  can0       6B1   [8]  00 32 00 0F 11 0F 00 1A
  can0       038   [1]  11
  can0       037   [1]  B2
  can0       6D0   [8]  79 00 00 0B 74 00 00 D0
  can0       037   [1]  B2
  can0       038   [1]  11
  can0       0C0   [8]  00 00 00 00 01 00 00 00
  can0       037   [1]  B2
  can0       038   [1]  11
  can0       6D0   [8]  7A 00 00 0B 74 00 00 D1
  can0       001   [2]  A2 02
  can0       000   [2]  00 00
  can0       002   [2]  7D 01
  can0       003   [2]  00 00
  can0       037   [1]  B2
  can0       038   [1]  11
  can0       6D0   [8]  7B 00 00 0B 74 00 03 D5
  can0       0C0   [8]  00 00 00 00 01 00 00 00
  can0       037   [1]  B2
  can0       038   [1]  11
  can0       080   [4]  05 0F 00 98
  can0  1839F380   [8]  00 0F 11 10 24 0A 15 B4
  can0  1838F380   [8]  00 14 11 14 0F 11 0A 15
  can0  18EEFF80   [8]  F3 00 80 F3 00 40 1E 90
  can0       037   [1]  B2
  can0       038   [1]  11
  can0       0C0   [8]  00 00 00 00 01 00 00 00
  can0       037   [1]  B2
  can0       038   [1]  11
  can0       6D0   [8]  7C 00 00 0B 74 00 08 DB
  can0       001   [2]  A2 02
  can0       000   [2]  00 00
  can0       002   [2]  7E 01
  can0       003   [2]  01 00
  can0       037   [1]  B2
  can0       038   [1]  11
  can0       0C0   [8]  00 00 00 00 01 00 00 00
  can0       6D0   [8]  7D 00 00 0B 74 00 00 D4
  can0       037   [1]  B2
  can0       038   [1]  11
  can0       6D0   [8]  7E 00 00 0B 74 00 00 D5
  can0       0C0   [8]  00 00 00 00 01 00 00 00
  can0       037   [1]  B2
  can0       038   [1]  11
  can0       6D0   [8]  7F 00 00 0B 74 00 AA 80
  can0       080   [8]  00 00 FF FF FF FF 00 84
  can0       037   [1]  B2
  can0       038   [1]  11
  can0       6D0   [8]  80 00 00 0B 74 00 00 D7
  can0       001   [2]  A2 02
  can0       000   [2]  00 00
  can0       002   [2]  7D 01
  can0       003   [2]  04 00
  can0       0C0   [8]  00 00 00 00 01 00 00 00
  can0       037   [1]  B2
  can0       038   [1]  11
  can0       6D0   [8]  82 00 00 0B 74 00 00 D9
  can0       037   [1]  B2
  can0       038   [1]  11
  can0       0C0   [8]  00 00 00 00 01 00 00 00
  can0       6B1   [8]  00 32 00 0F 11 0F 00 1A
  can0       038   [1]  11
  can0       037   [1]  B2
  can0       6D0   [8]  83 00 00 0B 74 00 00 DA
  can0       001   [2]  A2 02
  can0       000   [2]  00 00
  can0       002   [2]  7E 01
  can0       003   [2]  01 00
  can0       038   [1]  11
  can0       037   [1]  B2
  can0       0C0   [8]  00 00 00 00 01 00 00 00
  can0       037   [1]  B2
  can0       038   [1]  11
  can0       037   [1]  B2
  can0       038   [1]  11
  can0       0C0   [8]  00 00 00 00 01 00 00 00
  can0       080   [4]  06 11 00 9B
  can0  1839F380   [8]  00 0F 11 10 24 0A 15 B4
  can0  1838F380   [8]  00 15 0F 15 0F 11 0A 15
  can0       037   [1]  B2
  can0       038   [1]  11
  can0       6D0   [8]  84 00 00 0B 74 00 00 DB
  can0       001   [2]  A2 02
  can0       000   [2]  00 00
  can0       002   [2]  7C 01
  can0       003   [2]  01 00
  can0       037   [1]  B2
  can0       038   [1]  11
  can0       0C0   [8]  00 00 00 00 01 00 00 00
  can0       037   [1]  B2
  can0       038   [1]  11
  can0       6D0   [8]  85 00 00 0B 74 00 00 DC
  can0       037   [1]  B2
  can0       038   [1]  11
  can0       6D0   [8]  00 00 00 0B 74 01 03 5B
  can0       0C0   [8]  00 00 00 00 01 00 00 00
  can0       037   [1]  B2
  can0       038   [1]  11
  can0       6D0   [8]  01 00 00 0B 74 08 00 60
  can0       001   [2]  A1 02
  can0       000   [2]  00 00
  can0       002   [2]  7D 01
  can0       003   [2]  01 00
  can0       080   [8]  00 00 00 00 00 00 00 88
  can0       037   [1]  B2
  can0       038   [1]  11
  can0       0C0   [8]  00 00 00 00 01 00 00 00
  can0       6D0   [8]  02 00 00 0B 74 05 A6 04
  can0       037   [1]  B2
  can0       038   [1]  11
  can0       0C0   [8]  00 00 00 00 01 00 00 00
  can0       037   [1]  B2
  can0       038   [1]  11
  can0       037   [1]  B2
  can0       038   [1]  11
  can0       001   [2]  A2 02
  can0       000   [2]  00 00
  can0       002   [2]  7B 01
  can0       003   [2]  01 00
  can0       0C0   [8]  00 00 00 00 01 00 00 00
  can0       6B1   [8]  00 32 00 0F 11 0F 00 1A
  can0       038   [1]  11
  can0       037   [1]  B2
  can0       6D0   [8]  03 00 00 0B 74 4D 00 A7
  can0       037   [1]  B2
  can0       038   [1]  11
  can0       0C0   [8]  00 00 00 00 01 00 00 00
  can0       037   [1]  B2
  can0       038   [1]  11
  can0       6D0   [8]  04 00 00 0B 74 40 43 DE
  can0       001   [2]  A2 02
  can0       000   [2]  00 00
  can0       002   [2]  7D 01
  can0       003   [2]  02 00
  can0       038   [1]  11
  can0  1838F380   [8]  00 16 11 16 0F 11 0A 15
  can0       0C0   [8]  00 00 00 00 01 00 00 00
  can0  18EEFF80   [8]  F3 00 80 F3 00 40 1E 90
  can0       037   [1]  B2
  can0       038   [1]  11
  can0       6D0   [8]  06 00 00 0B 74 00 6C C9
  can0       037   [1]  B2
  can0       038   [1]  11
  can0       6D0   [8]  07 00 00 0B 74 00 48 A6
  can0       0C0   [8]  00 00 00 00 01 00 00 00
  can0       037   [1]  B2
  can0       038   [1]  11
  can0       6D0   [8]  08 00 00 0B 74 00 DF 3E
  can0       001   [2]  A2 02
  can0       000   [2]  00 00
  can0       002   [2]  7D 01
  can0       003   [2]  02 00
  can0       037   [1]  B2
  can0       038   [1]  11
  can0       0C0   [8]  00 00 00 00 01 00 00 00
  can0       037   [1]  B2
  can0       038   [1]  11
  can0       080   [8]  00 00 FF FF FF FF 00 84
  can0       037   [1]  B2
  can0       038   [1]  11
  can0       6D0   [8]  09 00 00 0B 74 40 00 A0
  can0       0C0   [8]  00 00 00 00 01 00 00 00
  can0       037   [1]  B2
  can0       038   [1]  11
  can0       6D0   [8]  0A 00 00 0B 74 00 0F 70
  can0       001   [2]  A3 02
  can0       000   [2]  00 00
  can0       002   [2]  7D 01
  can0       003   [2]  01 00
  can0       037   [1]  B2
  can0       038   [1]  11
  can0       0C0   [8]  00 00 00 00 01 00 00 00
  can0       037   [1]  B2
  can0       038   [1]  11
  can0       6D0   [8]  0B 00 00 0B 74 00 32 94
  can0       0C0   [8]  00 00 00 00 01 00 00 00
  can0       6B1   [8]  00 32 00 0F 11 0F 00 1A
  can0       038   [1]  11
  can0       037   [1]  B2
  can0       037   [1]  B2
  can0       038   [1]  11
  can0       6D0   [8]  0C 00 00 0B 74 00 00 63
  can0       001   [2]  A3 02
  can0       000   [2]  00 00
  can0       002   [2]  7D 01
  can0       003   [2]  01 00
  can0       0C0   [8]  00 00 00 00 01 00 00 00
  can0       037   [1]  B2
  can0       038   [1]  11
  can0       6D0   [8]  0D 00 00 0B 74 0B 74 E3
  can0       080   [4]  06 11 00 9B
  can0  1839F380   [8]  00 0F 11 10 24 0A 15 B4
  can0  1838F380   [8]  00 17 10 17 0F 11 0A 15
  can0       037   [1]  B2
  can0       038   [1]  11
  can0       0C0   [8]  00 00 00 00 01 00 00 00
  can0       037   [1]  B2
  can0       038   [1]  11
  can0       001   [2]  A1 02
  can0       000   [2]  00 00
  can0       002   [2]  7E 01
  can0       003   [2]  01 00
  can0       038   [1]  11
  can0       037   [1]  B2
  can0       6D0   [8]  0E 00 00 0B 74 0B 74 E4
  can0       0C0   [8]  00 00 00 00 01 00 00 00
  can0       037   [1]  B2
  can0       038   [1]  11
  can0       037   [1]  B2
  can0       038   [1]  11
  can0       6D0   [8]  0F 00 00 0B 74 00 B2 18
  can0       0C0   [8]  00 00 00 00 01 00 00 00
  can0       080   [8]  00 00 00 00 01 00 00 89
  can0       037   [1]  B2
  can0       038   [1]  11
  can0       6D0   [8]  10 00 00 0B 74 00 97 FE
  can0       001   [2]  A2 02
  can0       000   [2]  00 00
  can0       002   [2]  7D 01
  can0       003   [2]  02 00
  can0       037   [1]  B2
  can0       038   [1]  11
  can0       0C0   [8]  00 00 00 00 01 00 00 00
  can0       037   [1]  B2
  can0       038   [1]  11
  can0       6D0   [8]  11 00 00 0B 74 01 96 FF
  can0       037   [1]  B2
  can0       038   [1]  11
  can0       6D0   [8]  12 00 00 0B 74 00 2A 93
  can0       0C0   [8]  00 00 00 00 01 00 00 00
  can0       037   [1]  B2
  can0       038   [1]  11
  can0       001   [2]  A2 02
  can0       000   [2]  00 00
  can0       002   [2]  7D 01
  can0       003   [2]  01 00
  can0       6B1   [8]  00 32 00 0F 11 0F 00 1A
  can0       038   [1]  11
  can0       037   [1]  B2
  can0       0C0   [8]  00 00 00 00 01 00 00 00
  can0       037   [1]  B2
  can0       038   [1]  11
  can0       6D0   [8]  13 00 00 0B 74 00 64 CE
  can0       0C0   [8]  00 00 00 00 01 00 00 00
  can0       037   [1]  B2
  can0       038   [1]  11
  can0       080   [4]  05 0F 00 98
  can0  1839F380   [8]  00 0F 11 10 24 0A 15 B4
  can0  1838F380   [8]  00 18 11 18 0F 11 0A 15
  can0  18EEFF80   [8]  F3 00 80 F3 00 40 1E 90
  can0       037   [1]  B2
  can0       038   [1]  11
  can0       6D0   [8]  14 00 00 0B 74 72 8B 68
  can0       001   [2]  A2 02
  can0       000   [2]  00 00
  can0       002   [2]  7C 01
  can0       003   [2]  01 00
  can0       0C0   [8]  00 00 00 00 01 00 00 00
  can0       037   [1]  B2
  can0       038   [1]  11
  can0       6D0   [8]  15 00 00 0B 74 7F FF EA
  can0       037   [1]  B2
  can0       038   [1]  11
  can0       0C0   [8]  00 00 00 00 01 00 00 00
  can0       037   [1]  B2
  can0       038   [1]  11
  can0       6D0   [8]  16 00 00 0B 74 0B D0 48
  can0       001   [2]  A2 02
  can0       000   [2]  00 00
  can0       002   [2]  7C 01
  can0       003   [2]  01 00
  can0       038   [1]  11
  can0       037   [1]  B2
  can0       6D0   [8]  17 00 00 0B 74 07 08 7D
  can0       080   [8]  00 00 00 00 00 00 00 88
  can0       0C0   [8]  00 00 00 00 01 00 00 00
  can0       037   [1]  B2
  can0       038   [1]  11
  can0       037   [1]  B2
  can0       038   [1]  11
  can0       0C0   [8]  00 00 00 00 01 00 00 00
  can0       037   [1]  B2
  can0       038   [1]  11
  can0       001   [2]  A2 02
  can0       000   [2]  00 00
  can0       002   [2]  7D 01
  can0       003   [2]  01 00
  can0       037   [1]  B2
  can0       038   [1]  11
  can0       6D0   [8]  18 00 00 0B 74 00 19 88
  can0       0C0   [8]  00 00 00 00 01 00 00 00
  can0       037   [1]  B2
  can0       038   [1]  11
  can0       6D0   [8]  19 00 00 0B 74 04 04 78
  can0       6B1   [8]  00 32 00 0F 11 0F 00 1A
  can0       038   [1]  11
  can0       037   [1]  B2
  can0       6D0   [8]  1A 00 00 0B 74 00 2D 9E
  can0       0C0   [8]  00 00 00 00 01 00 00 00
  can0       037   [1]  B2
  can0       038   [1]  11
  can0       6D0   [8]  1B 00 00 0B 74 00 85 F7
  can0       001   [2]  A2 02
  can0       000   [2]  00 00
  can0       002   [2]  7D 01
  can0       003   [2]  01 00
  can0       080   [4]  06 11 00 9B
  can0  1839F380   [8]  00 0F 11 10 24 0A 15 B4
  can0  1838F380   [8]  00 19 11 19 0F 11 0A 15
  can0       037   [1]  B2
  can0       038   [1]  11
  can0       0C0   [8]  00 00 00 00 01 00 00 00
  can0       037   [1]  B2
  can0       038   [1]  11
  can0       6D0   [8]  1C 00 00 0B 74 00 4B BE
  can0       0C0   [8]  00 00 00 00 01 00 00 00
  can0       037   [1]  B2
  can0       038   [1]  11
  can0       6D0   [8]  1D 00 00 0B 74 00 14 88
  can0       037   [1]  B2
  can0       038   [1]  11
  can0       001   [2]  A3 02
  can0       000   [2]  00 00
  can0       002   [2]  7B 01
  can0       003   [2]  01 00
  can0       0C0   [8]  00 00 00 00 01 00 00 00
  can0       037   [1]  B2
  can0       038   [1]  11
  can0       080   [8]  00 00 00 00 00 00 00 88
  can0       037   [1]  B2
  can0       038   [1]  11
  can0       0C0   [8]  00 00 00 00 01 00 00 00
  can0       037   [1]  B2
  can0       038   [1]  11
  can0       6D0   [8]  1E 00 00 0B 74 00 00 75
  can0       001   [2]  A1 02
  can0       000   [2]  00 00
  can0       002   [2]  7D 01
  can0       003   [2]  03 00
  can0       038   [1]  11
  can0       037   [1]  B2
  can0       6D0   [8]  1F 00 00 0B 74 00 14 8A
  can0       0C0   [8]  00 00 00 00 01 00 00 00
  can0       037   [1]  B2
  can0       038   [1]  11
  can0       037   [1]  B2
  can0       038   [1]  11
  can0       6D0   [8]  20 00 00 0B 74 00 08 7F
  can0       0C0   [8]  00 00 00 00 01 00 00 00
  can0       037   [1]  B2
  can0       038   [1]  11
  can0       6D0   [8]  21 00 00 0B 74 00 00 78
  can0       001   [2]  A2 02
  can0       000   [2]  00 00
  can0       002   [2]  7D 01
  can0       003   [2]  02 00
  can0       6B1   [8]  00 32 00 0F 11 0F 00 1A
  can0       038   [1]  11
  can0       037   [1]  B2
  can0       6D0   [8]  22 00 00 0B 74 00 00 79
  can0       0C0   [8]  00 00 00 00 01 00 00 00
  can0       037   [1]  B2
  can0       038   [1]  11
  can0       6D0   [8]  23 00 00 0B 74 0B 74 F9
  can0       080   [4]  05 0F 00 98
  can0  1839F380   [8]  00 0F 11 10 24 0A 15 B4
  can0  1838F380   [8]  00 1A 10 1A 0F 11 0A 15
  can0  18EEFF80   [8]  F3 00 80 F3 00 40 1E 90
  can0       037   [1]  B2
  can0       038   [1]  11
  can0       6D0   [8]  24 00 00 0B 74 00 AC 27
  can0       0C0   [8]  00 00 00 00 01 00 00 00
  can0       037   [1]  B2
  can0       038   [1]  11
  can0       001   [2]  A2 02
  can0       000   [2]  00 00
  can0       002   [2]  7C 01
  can0       003   [2]  01 00
  can0       037   [1]  B2
  can0       038   [1]  11
  can0       0C0   [8]  00 00 00 00 01 00 00 00
  can0       037   [1]  B2
  can0       038   [1]  11
  can0       6D0   [8]  25 00 00 0B 74 00 0E 8A
  can0       0C0   [8]  00 00 00 00 01 00 00 00
  can0       037   [1]  B2
  can0       038   [1]  11
  can0       080   [8]  00 00 00 00 00 00 00 88
  can0       037   [1]  B2
  can0       038   [1]  11
  can0       001   [2]  A2 02
  can0       000   [2]  00 00
  can0       002   [2]  7C 01
  can0       003   [2]  01 00
  can0       0C0   [8]  00 00 00 00 01 00 00 00
  can0       037   [1]  B2
  can0       038   [1]  11
  can0       037   [1]  B2
  can0       038   [1]  11
  can0       6D0   [8]  26 00 00 0B 74 B2 6B 9A
  can0       0C0   [8]  00 00 00 00 01 00 00 00
  can0       037   [1]  B2
  can0       038   [1]  11
  can0       001   [2]  A2 02
  can0       000   [2]  00 00
  can0       002   [2]  7B 01
  can0       003   [2]  01 00
  can0       038   [1]  11
  can0       037   [1]  B2
  can0       6D0   [8]  27 00 00 0B 74 00 00 7E
  can0       0C0   [8]  00 00 00 00 01 00 00 00
  can0       037   [1]  B2
  can0       038   [1]  11
  can0       6D0   [8]  28 00 00 0B 74 00 11 90
  can0       6B1   [8]  00 32 00 0F 11 0F 00 1A
  can0       038   [1]  11
  can0       037   [1]  B2
  can0       0C0   [8]  00 00 00 00 01 00 00 00
  can0       080   [4]  06 11 00 9B
  can0  1839F380   [8]  00 0F 11 10 24 0A 15 B4
