;$FILEVERSION=2.0
;$STARTTIME=46037.8170285995
;$COLUMNS=N,O,T,I,d,l,D
;
;   Start time: 1/15/2026 19:36:31.271.0
;   Generated by PCAN-View v5.3.3.958
;   Message   Time    Type ID     Rx/Tx
;   Number    Offset  |    [hex]  |  Data Length
;   |         [ms]    |    |      |  |  Data [hex] ...
;   |         |       |    |      |  |  |
;---+-- ------+------ +- --+----- +- +- +- +- -- -- -- -- -- -- --
      1         0.004 DT     0038 Rx 1  14 
      2         0.504 DT     00C0 Rx 8  00 00 00 00 00 00 00 00 
      3         0.977 DT     00A0 Rx 8  F6 00 09 01 0B 01 38 01 
      4         1.445 DT     00A1 Rx 8  4B 01 B8 0B B8 0B B8 00 
      5         1.914 DT     00A2 Rx 8  AA 00 AA 00 C9 FD 00 00 
      6         2.391 DT     00A9 Rx 8  94 00 FD 00 FC 01 7B 04 
      7         2.864 DT     00AE Rx 8  10 00 30 65 24 05 24 20 
      8         7.708 DT     0037 Rx 1  5C 
      9         7.936 DT     0038 Rx 1  14 
     10         8.417 DT     06D0 Rx 8  5B 00 00 0A D2 00 00 0F 
     11        10.088 DT     00C0 Rx 8  00 00 00 00 00 00 00 00 
     12        15.704 DT     0037 Rx 1  5C 
     13        15.932 DT     0038 Rx 1  14 
     14        20.094 DT     00C0 Rx 8  00 00 00 00 00 00 00 00 
     15        23.704 DT     0037 Rx 1  5C 
     16        23.932 DT     0038 Rx 1  14 
     17        30.099 DT     00C0 Rx 8  00 00 00 00 00 00 00 00 
     18        31.770 DT     0037 Rx 1  5C 
     19        31.998 DT     0038 Rx 1  14 
     20        35.883 DT     0080 Rx 4  05 13 00 9C 
     21        36.440 DT 1839F380 Rx 8  00 13 14 13 24 23 03 C5 
     22        36.994 DT 1838F380 Rx 8  00 24 13 24 13 14 23 03 
     23        37.230 DT     0000 Rx 1  00 
     24        37.583 DT     0001 Rx 4  00 00 00 00 
     25        37.944 DT     0002 Rx 4  00 00 00 00 
     26        38.292 DT     0003 Rx 4  00 00 00 00 
     27        39.536 DT 18EEFF80 Rx 8  F3 00 80 F3 00 40 1E 90 
     28        39.764 DT     0038 Rx 1  14 
     29        39.991 DT     0037 Rx 1  5C 
     30        40.491 DT     00C0 Rx 8  00 00 00 00 00 00 00 00 
     31        40.972 DT     06D0 Rx 8  5C 00 00 0A D2 00 00 10 
     32        47.777 DT     0037 Rx 1  5C 
     33        48.004 DT     0038 Rx 1  14 
     34        48.504 DT     0080 Rx 8  00 00 00 00 FF FF 00 86 
     35        50.112 DT     00C0 Rx 8  00 00 00 00 00 00 00 00 
     36        55.701 DT     0037 Rx 1  5C 
     37        55.928 DT     0038 Rx 1  14 
     38        60.121 DT     00C0 Rx 8  00 00 00 00 00 00 00 00 
     39        63.945 DT     06B1 Rx 8  00 32 00 01 14 13 00 13 
     40        64.173 DT     0038 Rx 1  14 
     41        64.399 DT     0037 Rx 1  5C 
     42        64.877 DT     06D0 Rx 8  5D 00 00 0A D2 00 00 11 
     43        70.128 DT     00C0 Rx 8  00 00 00 00 00 00 00 00 
     44        71.697 DT     0037 Rx 1  5C 
     45        71.924 DT     0038 Rx 1  14 
     46        79.771 DT     0037 Rx 1  5C 
     47        79.997 DT     0038 Rx 1  14 
     48        80.497 DT     00C0 Rx 8  00 00 00 00 00 00 00 00 
     49        87.693 DT     0037 Rx 1  5C 
     50        87.921 DT     0038 Rx 1  14 
     51        88.402 DT     06D0 Rx 8  5E 00 00 0A D2 00 00 12 
     52        90.141 DT     00C0 Rx 8  00 00 00 00 00 00 00 00 
     53        93.676 DT     00A3 Rx 8  F3 0D 30 1F 10 00 00 00 
     54        94.175 DT     00A4 Rx 8  00 00 00 00 00 01 00 00 
     55        94.657 DT     00A5 Rx 8  A0 06 00 00 00 00 61 F9 
     56        95.135 DT     00A6 Rx 8  F8 FF 03 00 FD FF 00 00 
     57        95.612 DT     00A7 Rx 8  D3 0A 00 00 01 00 FF FF 
     58        95.839 DT     0038 Rx 1  14 
     59        96.067 DT     0037 Rx 1  5C 
     60        96.557 DT     00A8 Rx 8  00 00 00 00 FE FF 08 00 
     61        97.039 DT     00AA Rx 8  04 0C 09 03 20 10 40 00 
     62        97.539 DT     00AB Rx 8  00 00 00 00 00 00 00 00 
     63        98.039 DT     00AC Rx 8  00 00 00 00 F3 0B 00 00 
     64        98.534 DT     00AD Rx 8  00 00 00 00 00 00 00 00 
     65        99.016 DT     00B1 Rx 8  06 09 FA F6 00 00 00 00 
     66       100.145 DT     00C0 Rx 8  00 00 00 00 00 00 00 00 
     67       102.676 DT     00A0 Rx 8  F6 00 09 01 0B 01 38 01 
     68       103.141 DT     00A1 Rx 8  4B 01 B8 0B B8 0B B9 00 
     69       103.608 DT     00A2 Rx 8  AB 00 AB 00 C9 FD 00 00 
     70       103.836 DT     0038 Rx 1  14 
     71       104.063 DT     0037 Rx 1  5C 
     72       104.536 DT     00A9 Rx 8  95 00 FD 00 FC 01 7F 04 
     73       105.009 DT     00AE Rx 8  10 00 30 65 24 05 24 20 
     74       110.157 DT     00C0 Rx 8  00 00 00 00 00 00 00 00 
     75       111.761 DT     0037 Rx 1  5C 
     76       111.988 DT     0038 Rx 1  14 
     77       119.689 DT     0037 Rx 1  5C 
     78       119.916 DT     0038 Rx 1  14 
     79       120.416 DT     00C0 Rx 8  00 00 00 00 00 00 00 00 
     80       120.902 DT     06D0 Rx 8  5F 00 00 0A D2 00 00 13 
     81       127.760 DT     0037 Rx 1  5C 
     82       127.987 DT     0038 Rx 1  14 
     83       130.167 DT     00C0 Rx 8  00 00 00 00 00 00 00 00 
     84       135.688 DT     0037 Rx 1  5C 
     85       135.915 DT     0038 Rx 1  14 
     86       136.472 DT 1839F380 Rx 8  00 13 14 13 24 23 03 C5 
     87       137.021 DT 1838F380 Rx 8  00 25 13 25 13 14 23 03 
     88       137.254 DT     0000 Rx 1  00 
     89       137.606 DT     0001 Rx 4  00 00 00 00 
     90       137.967 DT     0002 Rx 4  00 00 00 00 
     91       138.315 DT     0003 Rx 4  01 00 00 00 
     92       138.650 DT     0080 Rx 4  06 14 00 9E 
     93       139.141 DT     06D0 Rx 8  60 00 00 0A D2 00 00 14 
     94       140.175 DT     00C0 Rx 8  00 00 00 00 00 00 00 00 
     95       143.686 DT     0037 Rx 1  5C 
     96       143.914 DT     0038 Rx 1  14 
     97       144.395 DT     06D0 Rx 8  61 00 00 0A D2 00 00 15 
     98       148.028 DT     0080 Rx 8  00 00 FF FF 00 00 00 86 
     99       150.180 DT     00C0 Rx 8  00 00 00 00 00 00 00 00 
    100       151.754 DT     0037 Rx 1  5C 
    101       151.981 DT     0038 Rx 1  14 
    102       152.467 DT     06D0 Rx 8  62 00 00 0A D2 00 00 16 
    103       159.686 DT     0037 Rx 1  5C 
    104       159.918 DT     0038 Rx 1  14 
    105       160.417 DT     00C0 Rx 8  00 00 00 00 00 00 00 00 
    106       167.931 DT     06B1 Rx 8  00 32 00 01 14 13 00 13 
    107       168.159 DT     0038 Rx 1  14 
    108       168.386 DT     0037 Rx 1  5C 
    109       168.864 DT     06D0 Rx 8  63 00 00 0A D1 00 00 16 
    110       170.192 DT     00C0 Rx 8  00 00 00 00 00 00 00 00 
    111       175.682 DT     0037 Rx 1  5C 
    112       175.909 DT     0038 Rx 1  14 
    113       180.201 DT     00C0 Rx 8  00 00 00 00 00 00 00 00 
    114       183.752 DT     0037 Rx 1  5C 
    115       183.980 DT     0038 Rx 1  14 
    116       190.209 DT     00C0 Rx 8  00 00 00 00 00 00 00 00 
    117       191.680 DT     0037 Rx 1  5C 
    118       191.908 DT     0038 Rx 1  14 
    119       192.394 DT     06D0 Rx 8  64 00 00 0A D2 00 00 18 
    120       195.661 DT     00A3 Rx 8  F3 0D 30 1F 10 00 00 00 
    121       196.161 DT     00A4 Rx 8  00 00 00 00 00 01 00 00 
    122       196.637 DT     00A5 Rx 8  9F 06 00 00 00 00 61 F9 
    123       197.124 DT     00A6 Rx 8  0E 00 F8 FF 00 00 00 00 
    124       197.601 DT     00A7 Rx 8  D3 0A 00 00 01 00 00 00 
    125       198.097 DT     00A8 Rx 8  00 00 00 00 E9 FF 04 00 
    126       198.574 DT     00AA Rx 8  04 0C 09 03 20 10 40 00 
    127       199.074 DT     00AB Rx 8  00 00 00 00 00 00 00 00 
    128       199.565 DT     00AC Rx 8  00 00 00 00 15 0C 00 00 
    129       199.793 DT     0038 Rx 1  14 
    130       200.025 DT     0037 Rx 1  5C 
    131       200.520 DT     00AD Rx 8  00 00 00 00 00 00 00 00 
    132       201.002 DT     00B1 Rx 8  06 09 FA F6 00 00 00 00 
    133       201.501 DT     00C0 Rx 8  00 00 00 00 00 00 00 00 
    134       204.656 DT     00A0 Rx 8  F6 00 09 01 0B 01 38 01 
    135       205.120 DT     00A1 Rx 8  4A 01 B8 0B B8 0B BA 00 
    136       205.598 DT     00A2 Rx 8  AC 00 AC 00 C9 FD 00 00 
    137       206.075 DT     00A9 Rx 8  96 00 FD 00 FC 01 7E 04 
    138       206.544 DT     00AE Rx 8  10 00 30 65 24 05 24 20 
    139       207.676 DT     0037 Rx 1  5C 
    140       207.904 DT     0038 Rx 1  14 
    141       208.390 DT     06D0 Rx 8  65 00 00 0A D2 00 00 19 
    142       210.222 DT     00C0 Rx 8  00 00 00 00 00 00 00 00 
    143       215.757 DT     0037 Rx 1  5C 
    144       215.984 DT     0038 Rx 1  14 
    145       220.227 DT     00C0 Rx 8  00 00 00 00 00 00 00 00 
    146       223.678 DT     0037 Rx 1  5C 
    147       223.905 DT     0038 Rx 1  14 
    148       224.383 DT     06D0 Rx 8  66 00 00 0A D1 00 00 19 
    149       230.233 DT     00C0 Rx 8  00 00 00 00 00 00 00 00 
    150       231.678 DT     0037 Rx 1  5C 
    151       231.905 DT     0038 Rx 1  14 
    152       235.853 DT     0080 Rx 4  05 13 00 9C 
    153       236.410 DT 1839F380 Rx 8  00 13 14 13 24 23 03 C5 
    154       236.972 DT 1838F380 Rx 8  00 00 13 00 13 14 23 03 
    155       237.209 DT     0000 Rx 1  00 
    156       237.561 DT     0001 Rx 4  00 00 00 00 
    157       237.923 DT     0002 Rx 4  00 00 00 00 
    158       238.271 DT     0003 Rx 4  01 00 00 00 
    159       239.515 DT 18EEFF80 Rx 8  F3 00 80 F3 00 40 1E 90 
    160       239.747 DT     0037 Rx 1  5C 
    161       239.974 DT     0038 Rx 1  14 
    162       240.474 DT     00C0 Rx 8  00 00 00 00 00 00 00 00 
    163       240.951 DT     06D0 Rx 8  67 00 00 0A D1 FF FF 18 
    164       247.675 DT     0037 Rx 1  5C 
    165       247.903 DT     0038 Rx 1  14 
    166       248.385 DT     06D0 Rx 8  68 00 00 0A D2 00 00 1C 
    167       248.880 DT     0080 Rx 8  00 00 FF FF 00 00 00 86 
    168       250.249 DT     00C0 Rx 8  00 00 00 00 00 00 00 00 
    169       255.671 DT     0037 Rx 1  5C 
    170       255.899 DT     0038 Rx 1  14 
    171       260.257 DT     00C0 Rx 8  00 00 00 00 00 00 00 00 
    172       263.680 DT     0037 Rx 1  5C 
    173       263.907 DT     0038 Rx 1  14 
    174       270.262 DT     00C0 Rx 8  00 00 00 00 00 00 00 00 
    175       271.983 DT     06B1 Rx 8  00 32 00 01 14 13 00 13 
    176       272.211 DT     0038 Rx 1  14 
    177       272.438 DT     0037 Rx 1  5C 
    178       279.670 DT     0037 Rx 1  5C 
    179       279.897 DT     0038 Rx 1  14 
    180       280.397 DT     00C0 Rx 8  00 00 00 00 00 00 00 00 
    181       280.879 DT     06D0 Rx 8  6E 00 00 0A D2 00 40 62 
    182       287.741 DT     0037 Rx 1  5C 
    183       287.968 DT     0038 Rx 1  14 
    184       290.276 DT     00C0 Rx 8  00 00 00 00 00 00 00 00 
    185       295.669 DT     0037 Rx 1  5C 
    186       295.896 DT     0038 Rx 1  14 
    187       296.373 DT     06D0 Rx 8  73 00 00 0A D2 07 F9 27 
    188       297.631 DT     00A3 Rx 8  F3 0D 30 1F 10 00 00 00 
    189       298.130 DT     00A4 Rx 8  00 00 00 00 00 01 00 00 
    190       298.607 DT     00A5 Rx 8  A0 06 00 00 00 00 61 F9 
    191       299.103 DT     00A6 Rx 8  09 00 04 00 07 00 00 00 
    192       299.585 DT     00A7 Rx 8  D3 0A 00 00 00 00 00 00 
    193       300.071 DT     00A8 Rx 8  00 00 00 00 26 00 EC FF 
    194       300.549 DT     00AA Rx 8  04 0C 09 03 20 10 40 00 
    195       301.048 DT     00AB Rx 8  00 00 00 00 00 00 00 00 
    196       301.539 DT     00AC Rx 8  00 00 00 00 37 0C 00 00 
    197       302.035 DT     00AD Rx 8  00 00 00 00 00 00 00 00 
    198       302.521 DT     00B1 Rx 8  06 09 FA F6 00 00 00 00 
    199       303.021 DT     00C0 Rx 8  00 00 00 00 00 00 00 00 
    200       303.668 DT     0037 Rx 1  5C 
    201       303.895 DT     0038 Rx 1  14 
    202       304.372 DT     06D0 Rx 8  74 00 00 0A D2 07 F9 28 
    203       306.631 DT     00A0 Rx 8  F6 00 09 01 0B 01 38 01 
    204       307.096 DT     00A1 Rx 8  4B 01 B8 0B B8 0B BB 00 
    205       307.564 DT     00A2 Rx 8  AD 00 AD 00 C9 FD 00 00 
    206       308.033 DT     00A9 Rx 8  95 00 FD 00 FB 01 7B 04 
    207       308.501 DT     00AE Rx 8  10 00 30 65 24 05 24 20 
    208       310.285 DT     00C0 Rx 8  00 00 00 00 00 00 00 00 
    209       311.733 DT     0037 Rx 1  5C 
    210       311.961 DT     0038 Rx 1  14 
    211       312.438 DT     06D0 Rx 8  75 00 00 0A D2 00 00 29 
    212       319.662 DT     0037 Rx 1  5C 
    213       319.889 DT     0038 Rx 1  14 
    214       320.389 DT     00C0 Rx 8  00 00 00 00 00 00 00 00 
    215       320.867 DT     06D0 Rx 8  76 00 00 0A D2 00 00 2A 
    216       327.662 DT     0037 Rx 1  5C 
    217       327.889 DT     0038 Rx 1  14 
    218       328.367 DT     06D0 Rx 8  77 00 00 0A D2 00 00 2B 
    219       330.300 DT     00C0 Rx 8  00 00 00 00 00 00 00 00 
    220       335.662 DT     0037 Rx 1  5C 
    221       335.889 DT     0038 Rx 1  14 
    222       336.447 DT 1839F380 Rx 8  00 13 14 13 24 23 03 C5 
    223       337.012 DT 1838F380 Rx 8  00 01 13 01 13 14 23 03 
    224       337.244 DT     0000 Rx 1  00 
    225       337.597 DT     0001 Rx 4  00 00 00 00 
    226       337.958 DT     0002 Rx 4  00 00 00 00 
    227       338.311 DT     0003 Rx 4  00 00 00 00 
    228       338.645 DT     0080 Rx 4  06 14 00 9E 
    229       340.304 DT     00C0 Rx 8  00 00 00 00 00 00 00 00 
    230       343.731 DT     0037 Rx 1  5C 
    231       343.958 DT     0038 Rx 1  14 
    232       347.995 DT     0080 Rx 8  00 00 FF FF FF FF 00 84 
    233       350.313 DT     00C0 Rx 8  00 00 00 00 00 00 00 00 
    234       351.659 DT     0037 Rx 1  5C 
    235       351.887 DT     0038 Rx 1  14 
    236       352.363 DT     06D0 Rx 8  78 00 00 0A D1 00 00 2B 
    237       359.730 DT     0037 Rx 1  5C 
    238       359.956 DT     0038 Rx 1  14 
    239       360.456 DT     00C0 Rx 8  00 00 00 00 00 00 00 00 
    240       367.663 DT     0037 Rx 1  5C 
    241       367.889 DT     0038 Rx 1  14 
    242       370.327 DT     00C0 Rx 8  00 00 00 00 00 00 00 00 
    243       375.902 DT     06B1 Rx 8  00 32 00 01 14 13 00 13 
    244       376.130 DT     0038 Rx 1  14 
    245       376.357 DT     0037 Rx 1  5C 
    246       376.830 DT     06D0 Rx 8  79 00 00 0A D1 00 00 2C 
    247       380.333 DT     00C0 Rx 8  00 00 00 00 00 00 00 00 
    248       383.733 DT     0037 Rx 1  5C 
    249       383.960 DT     0038 Rx 1  14 
    250       384.442 DT     06D0 Rx 8  7A 00 00 0A D1 00 00 2D 
    251       390.343 DT     00C0 Rx 8  00 00 00 00 00 00 00 00 
    252       391.652 DT     0037 Rx 1  5C 
    253       391.880 DT     0038 Rx 1  14 
    254       392.362 DT     06D0 Rx 8  7B 00 00 0A D2 00 03 32 
    255       399.603 DT     00A3 Rx 8  F3 0D 30 1F 10 00 00 00 
    256       399.830 DT     0038 Rx 1  14 
    257       400.058 DT     0037 Rx 1  5C 
    258       400.557 DT     00A4 Rx 8  00 00 00 00 00 01 00 00 
    259       401.039 DT     00A5 Rx 8  A0 06 00 00 00 00 61 F9 
    260       401.521 DT     00A6 Rx 8  03 00 FF FF FC FF 00 00 
    261       401.999 DT     00A7 Rx 8  D2 0A 00 00 01 00 00 00 
    262       402.490 DT     00A8 Rx 8  00 00 00 00 09 00 F3 FF 
    263       402.967 DT     00AA Rx 8  04 0C 09 03 20 10 40 00 
    264       403.467 DT     00AB Rx 8  00 00 00 00 00 00 00 00 
    265       403.954 DT     00AC Rx 8  00 00 00 00 59 0C 00 00 
    266       404.454 DT     00AD Rx 8  00 00 00 00 00 00 00 00 
    267       404.936 DT     00B1 Rx 8  06 09 FA F6 00 00 00 00 
    268       405.435 DT     00C0 Rx 8  00 00 00 00 00 00 00 00 
    269       407.650 DT     0037 Rx 1  5C 
    270       407.877 DT     0038 Rx 1  14 
    271       408.359 DT     06D0 Rx 8  7C 00 00 0A D2 00 08 38 
    272       408.827 DT     00A0 Rx 8  F6 00 09 01 0B 01 38 01 
    273       409.292 DT     00A1 Rx 8  4B 01 B8 0B B8 0B BC 00 
    274       409.760 DT     00A2 Rx 8  AE 00 AE 00 C9 FD 00 00 
    275       410.238 DT     00A9 Rx 8  96 00 FD 00 FC 01 7E 04 
    276       410.707 DT     00AE Rx 8  10 00 30 65 24 05 24 20 
    277       411.207 DT     00C0 Rx 8  00 00 00 00 00 00 00 00 
    278       415.654 DT     0037 Rx 1  5C 
    279       415.881 DT     0038 Rx 1  14 
    280       420.361 DT     00C0 Rx 8  00 00 00 00 00 00 00 00 
    281       423.658 DT     0037 Rx 1  5C 
    282       423.885 DT     0038 Rx 1  14 
    283       430.465 DT     00C0 Rx 8  00 00 00 00 00 00 00 00 
    284       431.825 DT     0037 Rx 1  5C 
    285       432.052 DT     0038 Rx 1  14 
    286       435.938 DT     0080 Rx 4  05 13 00 9C 
    287       436.496 DT 1839F380 Rx 8  00 13 14 13 24 23 03 C5 
    288       437.054 DT 1838F380 Rx 8  00 02 13 02 13 14 23 03 
    289       437.286 DT     0000 Rx 1  00 
    290       437.638 DT     0001 Rx 4  00 00 00 00 
    291       437.999 DT     0002 Rx 4  00 00 00 00 
    292       438.351 DT     0003 Rx 4  00 00 00 00 
    293       439.600 DT 18EEFF80 Rx 8  F3 00 80 F3 00 40 1E 90 
    294       439.827 DT     0038 Rx 1  14 
    295       440.055 DT     0037 Rx 1  5C 
    296       440.554 DT     00C0 Rx 8  00 00 00 00 00 00 00 00 
    297       441.036 DT     06D0 Rx 8  7D 00 00 0A D1 00 00 30 
    298       447.818 DT     0037 Rx 1  5C 
    299       448.046 DT     0038 Rx 1  14 
    300       448.545 DT     0080 Rx 8  00 00 00 00 FF FF 00 86 
    301       450.480 DT     00C0 Rx 8  00 00 00 00 00 00 00 00 
    302       455.747 DT     0037 Rx 1  5C 
    303       455.974 DT     0038 Rx 1  14 
    304       456.456 DT     06D0 Rx 8  7E 00 00 0A D2 00 00 32 
    305       460.485 DT     00C0 Rx 8  00 00 00 00 00 00 00 00 
    306       463.747 DT     0037 Rx 1  5C 
    307       463.974 DT     0038 Rx 1  14 
    308       464.447 DT     06D0 Rx 8  7F 00 00 0A D2 00 AA DD 
    309       470.494 DT     00C0 Rx 8  00 00 00 00 00 00 00 00 
    310       471.820 DT     0037 Rx 1  5C 
    311       472.047 DT     0038 Rx 1  14 
    312       479.988 DT     06B1 Rx 8  00 32 00 01 14 13 00 13 
    313       480.215 DT     0038 Rx 1  14 
    314       480.443 DT     0037 Rx 1  5C 
    315       480.942 DT     00C0 Rx 8  00 00 00 00 00 00 00 00 
    316       481.424 DT     06D0 Rx 8  80 00 00 0A D2 00 00 34 
    317       487.743 DT     0037 Rx 1  5C 
    318       487.970 DT     0038 Rx 1  14 
    319       488.452 DT     06D0 Rx 8  82 00 00 0A D2 00 00 36 
    320       490.507 DT     00C0 Rx 8  00 00 00 00 00 00 00 00 
    321       495.743 DT     0037 Rx 1  5C 
    322       495.970 DT     0038 Rx 1  14 
    323       500.515 DT     00C0 Rx 8  00 00 00 00 00 00 00 00 
    324       501.719 DT     00A3 Rx 8  F3 0D 30 1F 10 00 00 00 
    325       502.219 DT     00A4 Rx 8  00 00 00 00 00 01 00 00 
    326       502.696 DT     00A5 Rx 8  A0 06 00 00 00 00 61 F9 
    327       503.183 DT     00A6 Rx 8  F9 FF F9 FF FD FF 00 00 
    328       503.660 DT     00A7 Rx 8  D3 0A 00 00 01 00 00 00 
    329       503.888 DT     0038 Rx 1  14 
    330       504.120 DT     0037 Rx 1  5C 
    331       504.615 DT     00A8 Rx 8  00 00 00 00 F2 FF 05 00 
    332       505.092 DT     00AA Rx 8  04 0C 09 03 20 10 40 00 
    333       505.592 DT     00AB Rx 8  00 00 00 00 00 00 00 00 
    334       506.083 DT     00AC Rx 8  00 00 00 00 7B 0C 00 00 
    335       506.579 DT     00AD Rx 8  00 00 00 00 00 00 00 00 
    336       507.061 DT     00B1 Rx 8  06 09 FA F6 00 00 00 00 
    337       510.523 DT     00C0 Rx 8  00 00 00 00 00 00 00 00 
    338       510.992 DT     00A0 Rx 8  F6 00 09 01 0B 01 39 01 
    339       511.460 DT     00A1 Rx 8  4B 01 B8 0B B8 0B BD 00 
    340       511.933 DT     00A2 Rx 8  AF 00 AF 00 C9 FD 00 00 
    341       512.161 DT     0038 Rx 1  14 
    342       512.389 DT     0037 Rx 1  5C 
    343       512.857 DT     00A9 Rx 8  95 00 FD 00 FC 01 7B 04 
    344       513.330 DT     00AE Rx 8  10 00 30 65 24 05 24 20 
    345       513.808 DT     06D0 Rx 8  83 00 00 0A D2 00 00 37 
    346       519.739 DT     0037 Rx 1  5C 
    347       519.967 DT     0038 Rx 1  14 
    348       520.524 DT     00C0 Rx 8  00 00 00 00 00 00 00 00 
    349       527.809 DT     0037 Rx 1  5C 
    350       528.037 DT     0038 Rx 1  14 
    351       528.514 DT     06D0 Rx 8  84 00 00 0A D2 00 00 38 
    352       530.534 DT     00C0 Rx 8  00 00 00 00 00 00 00 00 
    353       535.734 DT     0037 Rx 1  5C 
    354       535.961 DT     0038 Rx 1  14 
    355       536.518 DT 1839F380 Rx 8  00 13 14 13 24 23 03 C5 
    356       537.072 DT 1838F380 Rx 8  00 03 13 03 13 14 23 03 
    357       537.308 DT     0000 Rx 1  00 
    358       537.661 DT     0001 Rx 4  00 00 00 00 
    359       538.022 DT     0002 Rx 4  00 00 00 00 
    360       538.370 DT     0003 Rx 4  02 00 00 00 
    361       538.705 DT     0080 Rx 4  06 14 00 9E 
    362       539.181 DT     06D0 Rx 8  85 00 00 0A D2 00 00 39 
    363       540.541 DT     00C0 Rx 8  00 00 00 00 00 00 00 00 
    364       543.808 DT     0037 Rx 1  5C 
    365       544.035 DT     0038 Rx 1  14 
    366       548.068 DT     0080 Rx 8  00 00 FF FF FF FF 00 84 
    367       550.546 DT     00C0 Rx 8  00 00 00 00 00 00 00 00 
    368       551.732 DT     0037 Rx 1  5C 
    369       551.960 DT     0038 Rx 1  14 
    370       552.441 DT     06D0 Rx 8  00 00 00 0A D1 01 03 B7 
    371       559.802 DT     0037 Rx 1  5C 
    372       560.030 DT     0038 Rx 1  14 
    373       560.556 DT     00C0 Rx 8  00 00 00 00 00 00 00 00 
    374       567.727 DT     0037 Rx 1  5C 
    375       567.954 DT     0038 Rx 1  14 
    376       570.560 DT     00C0 Rx 8  00 00 00 00 00 00 00 00 
    377       575.730 DT     0037 Rx 1  5C 
    378       575.958 DT     0038 Rx 1  14 
    379       576.444 DT     06D0 Rx 8  01 00 00 0A D2 08 00 BD 
    380       580.566 DT     00C0 Rx 8  00 00 00 00 00 00 00 00 
    381       583.975 DT     06B1 Rx 8  00 32 00 01 14 13 00 13 
    382       584.555 DT 1806E9F4 Rx 8  0B D0 00 0A 00 00 00 00 
    383       585.135 DT 1806E5F4 Rx 8  0B D0 00 0A 00 00 00 00 
    384       585.711 DT 1806E7F4 Rx 8  0B D0 00 0A 00 00 00 00 
    385       585.938 DT     0038 Rx 1  14 
    386       586.165 DT     0037 Rx 1  5C 
    387       590.573 DT     00C0 Rx 8  00 00 00 00 00 00 00 00 
    388       591.799 DT     0037 Rx 1  5C 
    389       592.026 DT     0038 Rx 1  14 
    390       599.726 DT     0037 Rx 1  5C 
    391       599.953 DT     0038 Rx 1  14 
    392       600.431 DT     06D0 Rx 8  02 00 00 0A D2 05 A6 61 
    393       600.930 DT     00C0 Rx 8  00 00 00 00 00 00 00 00 
    394       603.706 DT     00A3 Rx 8  F3 0D 30 1F 10 00 00 00 
    395       604.206 DT     00A4 Rx 8  00 00 00 00 00 01 00 00 
    396       604.684 DT     00A5 Rx 8  A0 06 00 00 00 00 61 F9 
    397       605.175 DT     00A6 Rx 8  03 00 10 00 FD FF 00 00 
    398       605.657 DT     00A7 Rx 8  D3 0A 00 00 00 00 00 00 
    399       606.152 DT     00A8 Rx 8  00 00 00 00 14 00 00 00 
    400       606.634 DT     00AA Rx 8  04 0C 09 03 20 10 40 00 
    401       607.134 DT     00AB Rx 8  00 00 00 00 00 00 00 00 
    402       607.620 DT     00AC Rx 8  00 00 00 00 9D 0C 00 00 
    403       607.848 DT     0038 Rx 1  14 
    404       608.076 DT     0037 Rx 1  5C 
    405       608.575 DT     00AD Rx 8  00 00 00 00 00 00 00 00 
    406       609.057 DT     00B1 Rx 8  06 09 FA F6 00 00 00 00 
    407       610.586 DT     00C0 Rx 8  00 00 00 00 00 00 00 00 
    408       612.708 DT     00A0 Rx 8  F6 00 09 01 0B 01 38 01 
    409       613.176 DT     00A1 Rx 8  4C 01 B8 0B B8 0B BE 00 
    410       613.654 DT     00A2 Rx 8  B0 00 B0 00 C9 FD 00 00 
    411       614.122 DT     00A9 Rx 8  96 00 FD 00 FC 01 7F 04 
    412       614.595 DT     00AE Rx 8  10 00 30 65 24 05 24 20 
    413       615.723 DT     0037 Rx 1  5C 
    414       615.951 DT     0038 Rx 1  14 
    415       616.428 DT     06D0 Rx 8  03 00 00 0A D1 4D 00 03 
    416       620.595 DT     00C0 Rx 8  00 00 00 00 00 00 00 00 
    417       623.720 DT     0037 Rx 1  5C 
    418       623.947 DT     0038 Rx 1  14 
    419       624.429 DT     06D0 Rx 8  04 00 00 0A D1 44 C7 C2 
    420       630.600 DT     00C0 Rx 8  00 00 00 00 00 00 00 00 
    421       631.800 DT     0037 Rx 1  5C 
    422       632.027 DT     0038 Rx 1  14 
    423       632.513 DT     06D0 Rx 8  05 00 00 0A D1 00 00 B8 
    424       635.851 DT     0080 Rx 4  05 13 00 9C 
    425       636.404 DT 1839F380 Rx 8  00 13 14 13 24 23 03 C5 
    426       636.970 DT 1838F380 Rx 8  00 04 13 04 13 14 23 03 
    427       637.207 DT     0000 Rx 1  00 
    428       637.555 DT     0001 Rx 4  00 00 00 00 
    429       637.916 DT     0002 Rx 4  00 00 00 00 
    430       638.264 DT     0003 Rx 4  01 00 00 00 
    431       639.566 DT 18EEFF80 Rx 8  F3 00 80 F3 00 40 1E 90 
    432       639.794 DT     0038 Rx 1  14 
    433       640.021 DT     0037 Rx 1  5C 
    434       640.493 DT     06D0 Rx 8  06 00 00 0A D1 00 6C 25 
    435       640.993 DT     00C0 Rx 8  00 00 00 00 00 00 00 00 
    436       647.718 DT     0037 Rx 1  5C 
    437       647.945 DT     0038 Rx 1  14 
    438       648.426 DT     06D0 Rx 8  07 00 00 0A D1 00 48 02 
    439       648.917 DT     0080 Rx 8  00 00 FF FF 00 00 00 86 
    440       650.611 DT     00C0 Rx 8  00 00 00 00 00 00 00 00 
    441       655.718 DT     0037 Rx 1  5C 
    442       655.945 DT     0038 Rx 1  14 
    443       660.620 DT     00C0 Rx 8  00 00 00 00 00 00 00 00 
    444       663.783 DT     0037 Rx 1  5C 
    445       664.011 DT     0038 Rx 1  14 
    446       670.625 DT     00C0 Rx 8  00 00 00 00 00 00 00 00 
    447       671.716 DT     0037 Rx 1  5C 
    448       671.944 DT     0038 Rx 1  14 
    449       672.421 DT     06D0 Rx 8  08 00 00 0A D2 00 D8 94 
    450       679.716 DT     0037 Rx 1  5C 
    451       679.943 DT     0038 Rx 1  14 
    452       680.634 DT     00C0 Rx 8  00 00 00 00 00 00 00 00 
    453       688.040 DT     06B1 Rx 8  00 32 00 01 14 13 00 13 
    454       688.268 DT     0038 Rx 1  14 
    455       688.495 DT     0037 Rx 1  5C 
    456       688.973 DT     06D0 Rx 8  09 00 00 0A D2 40 10 0D 
    457       690.640 DT     00C0 Rx 8  00 00 00 00 00 00 00 00 
    458       695.715 DT     0037 Rx 1  5C 
    459       695.943 DT     0038 Rx 1  14 
    460       696.424 DT     06D0 Rx 8  0A 00 00 0A D2 00 01 BF 
    461       700.645 DT     00C0 Rx 8  00 00 00 00 00 00 00 00 
    462       703.711 DT     0037 Rx 1  5C 
    463       703.938 DT     0038 Rx 1  14 
    464       705.699 DT     00A3 Rx 8  F3 11 30 1F 10 00 00 00 
    465       706.198 DT     00A4 Rx 8  00 00 00 00 00 01 00 00 
    466       706.680 DT     00A5 Rx 8  A0 06 00 00 00 00 61 F9 
    467       707.158 DT     00A6 Rx 8  EE FF F3 FF F0 FF 00 00 
    468       707.640 DT     00A7 Rx 8  D2 0A 00 00 01 00 00 00 
    469       708.135 DT     00A8 Rx 8  00 00 00 00 E3 FF 0D 00 
    470       708.617 DT     00AA Rx 8  04 0C 09 03 20 10 40 00 
    471       709.117 DT     00AB Rx 8  00 00 00 00 00 00 00 00 
    472       709.613 DT     00AC Rx 8  00 00 00 00 BF 0C 00 00 
    473       710.108 DT     00AD Rx 8  00 00 00 00 00 00 00 00 
    474       710.589 DT     00B1 Rx 8  06 09 FA F6 00 00 00 00 
    475       711.089 DT     00C0 Rx 8  00 00 00 00 00 00 00 00 
    476       711.789 DT     0037 Rx 1  5C 
    477       712.016 DT     0038 Rx 1  14 
    478       712.498 DT     06D0 Rx 8  0B 00 00 0A D1 00 32 F0 
    479       714.696 DT     00A0 Rx 8  F6 00 09 01 0B 01 39 01 
    480       715.164 DT     00A1 Rx 8  4C 01 B8 0B B8 0B C0 00 
    481       715.642 DT     00A2 Rx 8  B1 00 B1 00 C9 FD 00 00 
    482       716.111 DT     00A9 Rx 8  95 00 FD 00 FC 01 7B 04 
    483       716.584 DT     00AE Rx 8  10 00 30 65 24 05 24 20 
    484       719.708 DT     0037 Rx 1  5C 
    485       719.935 DT     0038 Rx 1  14 
    486       720.426 DT     06D0 Rx 8  0C 00 00 0A D1 00 00 BF 
    487       720.926 DT     00C0 Rx 8  00 00 00 00 00 00 00 00 
    488       727.709 DT     0037 Rx 1  5C 
    489       727.936 DT     0038 Rx 1  14 
    490       730.664 DT     00C0 Rx 8  00 00 00 00 00 00 00 00 
    491       735.712 DT     0037 Rx 1  5C 
    492       735.940 DT     0038 Rx 1  14 
    493       736.497 DT 1839F380 Rx 8  00 13 14 13 24 23 03 C5 
    494       737.051 DT 1838F380 Rx 8  00 05 13 05 13 14 23 03 
    495       737.287 DT     0000 Rx 1  00 
    496       737.640 DT     0001 Rx 4  00 00 00 00 
    497       738.001 DT     0002 Rx 4  00 00 00 00 
    498       738.354 DT     0003 Rx 4  00 00 00 00 
    499       738.688 DT     0080 Rx 4  06 14 00 9E 
    500       740.672 DT     00C0 Rx 8  00 00 00 00 00 00 00 00 
    501       743.777 DT     0037 Rx 1  5C 
    502       744.005 DT     0038 Rx 1  14 
    503       744.473 DT     06D0 Rx 8  0D 00 00 0A D1 0A D1 9B 
    504       748.048 DT     0080 Rx 8  00 00 FF FF FF FF 00 84 
    505       750.681 DT     00C0 Rx 8  00 00 00 00 00 00 00 00 
    506       751.707 DT     0037 Rx 1  5C 
    507       751.934 DT     0038 Rx 1  14 
    508       752.398 DT     06D0 Rx 8  0E 00 00 0A D1 0A D1 9C 
    509       759.772 DT     0037 Rx 1  5C 
    510       760.000 DT     0038 Rx 1  14 
    511       760.687 DT     00C0 Rx 8  00 00 00 00 00 00 00 00 
    512       767.706 DT     0037 Rx 1  5C 
    513       767.933 DT     0038 Rx 1  14 
    514       768.415 DT     06D0 Rx 8  0F 00 00 0A D2 00 5C 1F 
    515       770.693 DT     00C0 Rx 8  00 00 00 00 00 00 00 00 
    516       775.701 DT     0037 Rx 1  5C 
    517       775.929 DT     0038 Rx 1  14 
    518       780.696 DT     00C0 Rx 8  00 00 00 00 00 00 00 00 
    519       783.771 DT     0037 Rx 1  5C 
    520       783.999 DT     0038 Rx 1  14 
    521       784.476 DT     06D0 Rx 8  10 00 00 0A D2 00 4E 12 
    522       790.706 DT     00C0 Rx 8  00 00 00 00 00 00 00 00 
    523       791.945 DT     06B1 Rx 8  00 32 00 01 14 13 00 13 
    524       792.173 DT     0038 Rx 1  14 
    525       792.401 DT     0037 Rx 1  5C 
    526       792.878 DT     06D0 Rx 8  11 00 00 0A D2 01 7A 40 
    527       799.700 DT     0037 Rx 1  5C 
    528       799.927 DT     0038 Rx 1  14 
    529       800.712 DT     00C0 Rx 8  00 00 00 00 00 00 00 00 
    530       807.659 DT     00A3 Rx 8  F3 0D 30 1F 10 00 00 00 
    531       807.887 DT     0038 Rx 1  14 
    532       808.114 DT     0037 Rx 1  5C 
    533       808.614 DT     00A4 Rx 8  00 00 00 00 00 01 00 00 
    534       809.096 DT     00A5 Rx 8  9F 06 00 00 00 00 61 F9 
    535       809.573 DT     00A6 Rx 8  F9 FF F8 FF F1 FF 00 00 
    536       810.055 DT     00A7 Rx 8  D3 0A 00 00 01 00 00 00 
    537       810.556 DT     00A8 Rx 8  00 00 00 00 00 00 FC FF 
    538       811.033 DT     00AA Rx 8  04 0C 09 03 20 10 40 00 
    539       811.533 DT     00AB Rx 8  00 00 00 00 00 00 00 00 
    540       812.027 DT     00AC Rx 8  00 00 00 00 E1 0C 00 00 
    541       812.527 DT     00AD Rx 8  00 00 00 00 00 00 00 00 
    542       813.009 DT     00B1 Rx 8  06 09 FA F6 00 00 00 00 
    543       813.509 DT     00C0 Rx 8  00 00 00 00 00 00 00 00 
    544       815.764 DT     0037 Rx 1  5C 
    545       815.992 DT     0038 Rx 1  14 
    546       816.661 DT     00A0 Rx 8  F6 00 09 01 0B 01 38 01 
    547       817.138 DT     00A1 Rx 8  4B 01 B8 0B B8 0B C1 00 
    548       817.603 DT     00A2 Rx 8  B3 00 B3 00 C9 FD 00 00 
    549       818.076 DT     00A9 Rx 8  95 00 FD 00 FC 01 7F 04 
    550       818.549 DT     00AE Rx 8  10 00 30 65 24 05 24 20 
    551       820.724 DT     00C0 Rx 8  00 00 00 00 00 00 00 00 
    552       823.697 DT     0037 Rx 1  5C 
    553       823.924 DT     0038 Rx 1  14 
    554       824.397 DT     06D0 Rx 8  12 00 00 0A D1 00 6B 30 
    555       830.733 DT     00C0 Rx 8  00 00 00 00 00 00 00 00 
    556       831.763 DT     0037 Rx 1  5C 
    557       831.991 DT     0038 Rx 1  14 
    558       835.836 DT     0080 Rx 4  05 13 00 9C 
    559       836.393 DT 1839F380 Rx 8  00 13 14 13 24 23 03 C5 
    560       836.947 DT 1838F380 Rx 8  00 06 13 06 13 14 23 03 
    561       837.183 DT     0000 Rx 1  00 
    562       837.536 DT     0001 Rx 4  01 00 00 00 
    563       837.897 DT     0002 Rx 4  00 00 00 00 
    564       838.250 DT     0003 Rx 4  00 00 00 00 
    565       839.529 DT 18EEFF80 Rx 8  F3 00 80 F3 00 40 1E 90 
    566       839.757 DT     0038 Rx 1  14 
    567       839.984 DT     0037 Rx 1  5C 
    568       840.457 DT     06D0 Rx 8  13 00 00 0A D2 00 64 2B 
    569       840.957 DT     00C0 Rx 8  00 00 00 00 00 00 00 00 
    570       847.694 DT     0037 Rx 1  5C 
    571       847.922 DT     0038 Rx 1  14 
    572       848.395 DT     06D0 Rx 8  14 00 00 0A D2 6C 34 68 
    573       848.885 DT     0080 Rx 8  00 00 FF FF 00 00 00 86 
    574       850.743 DT     00C0 Rx 8  00 00 00 00 00 00 00 00 
    575       855.762 DT     0037 Rx 1  5C 
    576       855.989 DT     0038 Rx 1  14 
    577       860.752 DT     00C0 Rx 8  00 00 00 00 00 00 00 00 
    578       863.689 DT     0037 Rx 1  5C 
    579       863.917 DT     0038 Rx 1  14 
    580       864.394 DT     06D0 Rx 8  15 00 00 0A D2 7F FF 47 
    581       870.758 DT     00C0 Rx 8  00 00 00 00 00 00 00 00 
    582       871.690 DT     0037 Rx 1  5C 
    583       871.917 DT     0038 Rx 1  14 
    584       872.395 DT     06D0 Rx 8  16 00 00 0A D2 0B D0 A5 
    585       879.689 DT     0037 Rx 1  5C 
    586       879.917 DT     0038 Rx 1  14 
    587       880.764 DT     00C0 Rx 8  00 00 00 00 00 00 00 00 
    588       887.760 DT     0037 Rx 1  5C 
    589       887.987 DT     0038 Rx 1  14 
    590       890.772 DT     00C0 Rx 8  00 00 00 00 00 00 00 00 
    591       895.933 DT     06B1 Rx 8  00 32 00 01 14 13 00 13 
    592       896.160 DT     0038 Rx 1  14 
    593       896.388 DT     0037 Rx 1  5C 
    594       896.865 DT     06D0 Rx 8  17 00 00 0A D2 07 08 DA 
    595       900.777 DT     00C0 Rx 8  00 00 00 00 00 00 00 00 
    596       903.764 DT     0037 Rx 1  5C 
    597       903.991 DT     0038 Rx 1  14 
    598       909.632 DT     00A3 Rx 8  F3 0D 30 1F 10 00 00 00 
    599       910.132 DT     00A4 Rx 8  00 00 00 00 00 01 00 00 
    600       910.614 DT     00A5 Rx 8  A0 06 00 00 00 00 61 F9 
    601       911.092 DT     00A6 Rx 8  F2 FF FE FF 07 00 00 00 
    602       911.574 DT     00A7 Rx 8  D2 0A 00 00 01 00 00 00 
    603       911.801 DT     0038 Rx 1  14 
    604       912.029 DT     0037 Rx 1  5C 
    605       912.519 DT     00A8 Rx 8  00 00 00 00 07 00 F3 FF 
    606       913.000 DT     00AA Rx 8  04 0C 09 03 20 10 40 00 
    607       913.500 DT     00AB Rx 8  00 00 00 00 00 00 00 00 
    608       913.991 DT     00AC Rx 8  00 00 00 00 03 0D 00 00 
    609       914.486 DT     00AD Rx 8  00 00 00 00 00 00 00 00 
    610       914.968 DT     00B1 Rx 8  06 09 FA F6 00 00 00 00 
    611       915.473 DT     00C0 Rx 8  00 00 00 00 00 00 00 00 
    612       915.946 DT     06D0 Rx 8  18 00 00 0A D2 00 18 E4 
    613       918.634 DT     00A0 Rx 8  F6 00 09 01 0B 01 38 01 
    614       919.103 DT     00A1 Rx 8  4C 01 B8 0B B8 0B C2 00 
    615       919.576 DT     00A2 Rx 8  B4 00 B4 00 C9 FD 00 00 
    616       919.804 DT     0038 Rx 1  14 
    617       920.036 DT     0037 Rx 1  5C 
    618       920.504 DT     00A9 Rx 8  95 00 FD 00 FC 01 7C 04 
    619       920.976 DT     00AE Rx 8  10 00 30 65 24 05 24 20 
    620       921.476 DT     00C0 Rx 8  00 00 00 00 00 00 00 00 
    621       921.963 DT     06D0 Rx 8  19 00 00 0A D2 00 00 CD 
    622       927.752 DT     0037 Rx 1  5C 
    623       927.979 DT     0038 Rx 1  14 
    624       928.461 DT     06D0 Rx 8  1A 00 00 0A D2 00 02 D0 
    625       930.796 DT     00C0 Rx 8  00 00 00 00 00 00 00 00 
    626       935.680 DT     0037 Rx 1  5C 
    627       935.908 DT     0038 Rx 1  14 
    628       936.464 DT 1839F380 Rx 8  00 13 14 13 24 23 03 C5 
    629       937.022 DT 1838F380 Rx 8  00 07 13 07 13 14 23 03 
    630       937.259 DT     0000 Rx 1  00 
    631       937.611 DT     0001 Rx 4  00 00 00 00 
    632       937.972 DT     0002 Rx 4  00 00 00 00 
    633       938.320 DT     0003 Rx 4  01 00 00 00 
    634       938.655 DT     0080 Rx 4  06 14 00 9E 
    635       939.141 DT     06D0 Rx 8  1B 00 00 0A D2 00 7E 4D 
    636       940.804 DT     00C0 Rx 8  00 00 00 00 00 00 00 00 
    637       943.679 DT     0037 Rx 1  5C 
    638       943.906 DT     0038 Rx 1  14 
    639       944.392 DT     06D0 Rx 8  1C 00 00 0A D2 00 32 02 
    640       948.024 DT     0080 Rx 8  00 00 FF FF 00 00 00 86 
    641       950.815 DT     00C0 Rx 8  00 00 00 00 00 00 00 00 
    642       951.684 DT     0037 Rx 1  5C 
    643       951.910 DT     0038 Rx 1  14 
    644       959.744 DT     0037 Rx 1  5C 
    645       959.971 DT     0038 Rx 1  14 
    646       960.818 DT     00C0 Rx 8  00 00 00 00 00 00 00 00 
    647       967.677 DT     0037 Rx 1  5C 
    648       967.904 DT     0038 Rx 1  14 
    649       968.386 DT     06D0 Rx 8  1D 00 00 0A D2 00 01 D2 
    650       970.824 DT     00C0 Rx 8  00 00 00 00 00 00 00 00 
    651       975.673 DT     0037 Rx 1  5C 
    652       975.901 DT     0038 Rx 1  14 
    653       980.834 DT     00C0 Rx 8  00 00 00 00 00 00 00 00 
    654       983.744 DT     0037 Rx 1  5C 
    655       983.971 DT     0038 Rx 1  14 
    656       984.457 DT     06D0 Rx 8  1E 00 00 0A D2 00 00 D2 
    657       990.838 DT     00C0 Rx 8  00 00 00 00 00 00 00 00 
    658       991.672 DT     0037 Rx 1  5C 
    659       991.900 DT     0038 Rx 1  14 
    660       992.386 DT     06D0 Rx 8  1F 00 00 0A D2 00 1C EF 
    661       999.921 DT     06B1 Rx 8  00 32 00 01 14 13 00 13 
    662      1000.149 DT     0038 Rx 1  14 
    663      1000.376 DT     0037 Rx 1  5C 
    664      1000.880 DT     00C0 Rx 8  00 00 00 00 00 00 00 00 
    665      1007.742 DT     0037 Rx 1  5C 
    666      1007.970 DT     0038 Rx 1  14 
    667      1008.447 DT     06D0 Rx 8  20 00 00 0A D2 00 08 DC 
    668      1010.855 DT     00C0 Rx 8  00 00 00 00 00 00 00 00 
    669      1011.649 DT     00A3 Rx 8  F3 0D 30 1F 10 00 00 00 
    670      1012.149 DT     00A4 Rx 8  00 00 00 00 00 01 00 00 
    671      1012.631 DT     00A5 Rx 8  A0 06 00 00 00 00 61 F9 
    672      1013.113 DT     00A6 Rx 8  F1 FF F8 FF 06 00 00 00 
    673      1013.595 DT     00A7 Rx 8  D2 0A 00 00 01 00 00 00 
    674      1014.081 DT     00A8 Rx 8  00 00 00 00 EA FF 0C 00 
    675      1014.562 DT     00AA Rx 8  04 0C 09 03 20 10 40 00 
    676      1015.062 DT     00AB Rx 8  00 00 00 00 00 00 00 00 
    677      1015.557 DT     00AC Rx 8  00 00 00 00 25 0D 00 00 
    678      1015.785 DT     0038 Rx 1  14 
    679      1016.012 DT     0037 Rx 1  5C 
    680      1016.508 DT     00AD Rx 8  00 00 00 00 00 00 00 00 
    681      1016.990 DT     00B1 Rx 8  06 09 FA F6 00 00 00 00 
    682      1017.476 DT     06D0 Rx 8  21 00 00 0A D2 00 00 D5 
    683      1020.650 DT     00A0 Rx 8  F6 00 09 01 0B 01 39 01 
    684      1021.110 DT     00A1 Rx 8  4D 01 B8 0B B8 0B C3 00 
    685      1021.579 DT     00A2 Rx 8  B5 00 B5 00 C9 FD 00 00 
    686      1022.051 DT     00A9 Rx 8  95 00 FD 00 FC 01 7C 04 
    687      1022.519 DT     00AE Rx 8  10 00 30 65 24 05 24 20 
    688      1023.024 DT     00C0 Rx 8  00 00 00 00 00 00 00 00 
    689      1023.670 DT     0037 Rx 1  5C 
    690      1023.898 DT     0038 Rx 1  14 
    691      1030.862 DT     00C0 Rx 8  00 00 00 00 00 00 00 00 
    692      1031.669 DT     0037 Rx 1  5C 
    693      1031.897 DT     0038 Rx 1  14 
    694      1035.810 DT     0080 Rx 4  05 13 00 9C 
    695      1036.367 DT 1839F380 Rx 8  00 13 14 13 24 23 03 C5 
    696      1036.930 DT 1838F380 Rx 8  00 08 13 08 13 14 23 03 
    697      1037.166 DT     0000 Rx 1  00 
    698      1037.518 DT     0001 Rx 4  00 00 00 00 
    699      1037.879 DT     0002 Rx 4  00 00 00 00 
    700      1038.232 DT     0003 Rx 4  00 00 00 00 
    701      1039.502 DT 18EEFF80 Rx 8  F3 00 80 F3 00 40 1E 90 
    702      1039.739 DT     0037 Rx 1  5C 
    703      1039.966 DT     0038 Rx 1  14 
    704      1040.444 DT     06D0 Rx 8  22 00 00 0A D2 00 00 D6 
    705      1040.943 DT     00C0 Rx 8  00 00 00 00 00 00 00 00 
    706      1047.667 DT     0037 Rx 1  5C 
    707      1047.895 DT     0038 Rx 1  14 
    708      1048.377 DT     06D0 Rx 8  23 00 00 0A D2 0A D2 B3 
    709      1048.867 DT     0080 Rx 8  00 00 FF FF 00 00 00 86 
    710      1050.878 DT     00C0 Rx 8  00 00 00 00 00 00 00 00 
    711      1055.663 DT     0037 Rx 1  5C 
    712      1055.891 DT     0038 Rx 1  14 
    713      1056.364 DT     06D0 Rx 8  24 00 00 0A D2 00 B8 90 
    714      1060.882 DT     00C0 Rx 8  00 00 00 00 00 00 00 00 
    715      1063.730 DT     0037 Rx 1  5C 
    716      1063.958 DT     0038 Rx 1  14 
    717      1070.892 DT     00C0 Rx 8  00 00 00 00 00 00 00 00 
    718      1071.663 DT     0037 Rx 1  5C 
    719      1071.891 DT     0038 Rx 1  14 
    720      1079.661 DT     0037 Rx 1  5C 
    721      1079.889 DT     0038 Rx 1  14 
    722      1080.366 DT     06D0 Rx 8  25 00 00 0A D2 00 0C E5 
    723      1080.897 DT     00C0 Rx 8  00 00 00 00 00 00 00 00 
    724      1087.661 DT     0037 Rx 1  5C 
    725      1087.889 DT     0038 Rx 1  14 
    726      1090.906 DT     00C0 Rx 8  00 00 00 00 00 00 00 00 
    727      1095.732 DT     0037 Rx 1  5C 
    728      1095.959 DT     0038 Rx 1  14 
    729      1096.436 DT     06D0 Rx 8  26 00 00 0A D2 50 5D 87 
    730      1100.910 DT     00C0 Rx 8  00 00 00 00 00 00 00 00 
    731      1103.906 DT     06B1 Rx 8  00 32 00 01 14 13 00 13 
    732      1104.133 DT     0038 Rx 1  14 
    733      1104.361 DT     0037 Rx 1  5C 
    734      1104.842 DT     06D0 Rx 8  27 00 00 0A D2 00 00 DB 
    735      1110.921 DT     00C0 Rx 8  00 00 00 00 00 00 00 00 
    736      1111.656 DT     0037 Rx 1  5C 
    737      1111.884 DT     0038 Rx 1  14 
    738      1113.631 DT     00A3 Rx 8  F3 0D 30 1F 11 00 00 00 
    739      1114.131 DT     00A4 Rx 8  00 00 00 00 00 01 00 00 
    740      1114.613 DT     00A5 Rx 8  9F 06 00 00 00 00 61 F9 
    741      1115.086 DT     00A6 Rx 8  FD FF 09 00 07 00 00 00 
    742      1115.567 DT     00A7 Rx 8  D3 0A 00 00 01 00 00 00 
    743      1116.062 DT     00A8 Rx 8  00 00 00 00 07 00 05 00 
    744      1116.544 DT     00AA Rx 8  04 0C 09 03 20 10 40 00 
    745      1117.044 DT     00AB Rx 8  00 00 00 00 00 00 00 00 
    746      1117.531 DT     00AC Rx 8  00 00 00 00 47 0D 00 00 
    747      1118.027 DT     00AD Rx 8  00 00 00 00 00 00 00 00 
    748      1118.509 DT     00B1 Rx 8  06 09 FA F6 00 00 00 00 
    749      1119.654 DT     0037 Rx 1  5C 
    750      1119.882 DT     0038 Rx 1  14 
    751      1120.925 DT     00C0 Rx 8  00 00 00 00 00 00 00 00 
    752      1122.637 DT     00A0 Rx 8  F6 00 09 01 0B 01 39 01 
    753      1123.101 DT     00A1 Rx 8  4B 01 B8 0B B8 0B C4 00 
    754      1123.569 DT     00A2 Rx 8  B6 00 B6 00 C9 FD 00 00 
    755      1124.042 DT     00A9 Rx 8  95 00 FD 00 FC 01 7F 04 
    756      1124.511 DT     00AE Rx 8  10 00 30 65 24 05 24 20 
    757      1127.724 DT     0037 Rx 1  5C 
    758      1127.952 DT     0038 Rx 1  14 
    759      1130.933 DT     00C0 Rx 8  00 00 00 00 00 00 00 00 
    760      1135.656 DT     0037 Rx 1  5C 
    761      1135.884 DT     0038 Rx 1  14 
    762      1136.437 DT 1839F380 Rx 8  00 13 14 13 24 23 03 C5 
    763      1136.990 DT 1838F380 Rx 8  00 09 13 09 13 14 23 03 
    764      1137.227 DT     0000 Rx 1  00 
    765      1137.579 DT     0001 Rx 4  00 00 00 00 
    766      1137.936 DT     0002 Rx 4  00 00 00 00 
    767      1138.289 DT     0003 Rx 4  00 00 00 00 
    768      1138.628 DT     0080 Rx 4  06 14 00 9E 
    769      1139.108 DT     06D0 Rx 8  28 00 00 0A D2 00 14 F0 
    770      1140.936 DT     00C0 Rx 8  00 00 00 00 00 00 00 00 
    771      1143.722 DT     0037 Rx 1  5C 
    772      1143.949 DT     0038 Rx 1  14 
    773      1148.000 DT     0080 Rx 8  00 00 FF FF FF FF 00 84 
    774      1150.946 DT     00C0 Rx 8  00 00 00 00 00 00 00 00 
    775      1151.659 DT     0037 Rx 1  5C 
    776      1151.887 DT     0038 Rx 1  14 
    777      1152.373 DT     06D0 Rx 8  29 00 00 0A D2 00 13 F0 
    778      1159.649 DT     0037 Rx 1  5C 
    779      1159.877 DT     0038 Rx 1  14 
    780      1160.359 DT     06D0 Rx 8  2A 00 00 0A D2 00 13 F1 
    781      1160.952 DT     00C0 Rx 8  00 00 00 00 00 00 00 00 
    782      1167.726 DT     0037 Rx 1  5C 
    783      1167.953 DT     0038 Rx 1  14 
    784      1170.956 DT     00C0 Rx 8  00 00 00 00 00 00 00 00 
    785      1175.649 DT     0037 Rx 1  5C 
    786      1175.877 DT     0038 Rx 1  14 
    787      1176.358 DT     06D0 Rx 8  2B 00 00 0A D2 00 00 DF 
    788      1180.966 DT     00C0 Rx 8  00 00 00 00 00 00 00 00 
    789      1183.645 DT     0037 Rx 1  5C 
    790      1183.872 DT     0038 Rx 1  14 
    791      1184.358 DT     06D0 Rx 8  2C 00 00 0A D2 00 00 E0 
    792      1190.971 DT     00C0 Rx 8  00 00 00 00 00 00 00 00 
    793      1191.653 DT     0037 Rx 1  5C 
    794      1191.881 DT     0038 Rx 1  14 
    795      1199.714 DT     0037 Rx 1  5C 
    796      1199.941 DT     0038 Rx 1  14 
    797      1200.976 DT     00C0 Rx 8  00 00 00 00 00 00 00 00 
    798      1207.892 DT     06B1 Rx 8  00 32 00 01 14 13 00 13 
    799      1208.119 DT     0038 Rx 1  14 
    800      1208.347 DT     0037 Rx 1  5C 
    801      1208.829 DT     06D0 Rx 8  2D 00 00 0A D2 00 15 F6 
    802      1210.986 DT     00C0 Rx 8  00 00 00 00 00 00 00 00 
    803      1215.621 DT     00A3 Rx 8  F3 0D 30 1F 10 00 00 00 
    804      1215.849 DT     0038 Rx 1  14 
    805      1216.076 DT     0037 Rx 1  5C 
    806      1216.576 DT     00A4 Rx 8  00 00 00 00 00 01 00 00 
    807      1217.057 DT     00A5 Rx 8  A0 06 00 00 00 00 61 F9 
    808      1217.539 DT     00A6 Rx 8  08 00 FE FF FC FF 00 00 
    809      1218.021 DT     00A7 Rx 8  D3 0A 00 00 01 00 00 00 
    810      1218.512 DT     00A8 Rx 8  00 00 00 00 F5 FF 01 00 
    811      1218.994 DT     00AA Rx 8  04 0C 09 03 20 10 40 00 
    812      1219.494 DT     00AB Rx 8  00 00 00 00 00 00 00 00 
    813      1219.981 DT     00AC Rx 8  00 00 00 00 69 0D 00 00 
    814      1220.476 DT     00AD Rx 8  00 00 00 00 00 00 00 00 
    815      1220.958 DT     00B1 Rx 8  06 09 FA F6 00 00 00 00 
    816      1221.462 DT     00C0 Rx 8  00 00 00 00 00 00 00 00 
    817      1223.642 DT     0037 Rx 1  5C 
    818      1223.869 DT     0038 Rx 1  14 
    819      1224.342 DT     06D0 Rx 8  2E 00 00 0A D2 00 88 6A 
    820      1224.815 DT     00A0 Rx 8  F6 00 09 01 0B 01 38 01 
    821      1225.284 DT     00A1 Rx 8  4A 01 B8 0B B8 0B C5 00 
    822      1225.753 DT     00A2 Rx 8  B7 00 B7 00 C9 FD 00 00 
    823      1226.221 DT     00A9 Rx 8  95 00 FD 00 FC 01 7B 04 
    824      1226.694 DT     00AE Rx 8  10 00 30 65 24 05 24 20 
    825      1231.000 DT     00C0 Rx 8  00 00 00 00 00 00 00 00 
    826      1231.718 DT     0037 Rx 1  5C 
    827      1231.945 DT     0038 Rx 1  14 
    828      1235.839 DT     0080 Rx 4  05 13 00 9C 
    829      1236.397 DT 1839F380 Rx 8  00 13 14 13 24 23 03 C5 
    830      1236.950 DT 1838F380 Rx 8  00 0A 13 0A 13 14 23 03 
    831      1237.182 DT     0000 Rx 1  00 
    832      1237.530 DT     0001 Rx 4  02 00 00 00 
    833      1237.892 DT     0002 Rx 4  00 00 00 00 
    834      1238.244 DT     0003 Rx 4  00 00 00 00 
    835      1239.506 DT 18EEFF80 Rx 8  F3 00 80 F3 00 40 1E 90 
    836      1239.734 DT     0038 Rx 1  14 
    837      1239.961 DT     0037 Rx 1  5C 
    838      1240.433 DT     06D0 Rx 8  2F 00 00 0A D2 00 68 4B 
    839      1241.004 DT     00C0 Rx 8  00 00 00 00 00 00 00 00 
    840      1247.640 DT     0037 Rx 1  5C 
    841      1247.866 DT     0038 Rx 1  14 
    842      1248.357 DT     0080 Rx 8  00 00 FF FF 00 00 00 86 
    843      1251.014 DT     00C0 Rx 8  00 00 00 00 00 00 00 00 
    844      1255.714 DT     0037 Rx 1  5C 
    845      1255.942 DT     0038 Rx 1  14 
    846      1261.018 DT     00C0 Rx 8  00 00 00 00 00 00 00 00 
    847      1263.638 DT     0037 Rx 1  5C 
    848      1263.865 DT     0038 Rx 1  14 
    849      1264.343 DT     06D0 Rx 8  30 00 00 0A D2 00 01 E5 
    850      1271.024 DT     00C0 Rx 8  00 00 00 00 00 00 00 00 
    851      1271.634 DT     0037 Rx 1  5C 
    852      1271.862 DT     0038 Rx 1  14 
    853      1272.348 DT     06D0 Rx 8  31 00 00 0A D2 00 00 E5 
    854      1279.642 DT     0037 Rx 1  5C 
    855      1279.870 DT     0038 Rx 1  14 
    856      1281.033 DT     00C0 Rx 8  00 00 00 00 00 00 00 00 
    857      1287.704 DT     0037 Rx 1  5C 
    858      1287.931 DT     0038 Rx 1  14 
    859      1291.037 DT     00C0 Rx 8  00 00 00 00 00 00 00 00 
    860      1295.631 DT     0037 Rx 1  5C 
    861      1295.859 DT     0038 Rx 1  14 
    862      1296.336 DT     06D0 Rx 8  32 00 00 0A D2 8E D3 47 
    863      1301.043 DT     00C0 Rx 8  00 00 00 00 00 00 00 00 
    864      1303.698 DT     0037 Rx 1  5C 
    865      1303.925 DT     0038 Rx 1  14 
    866      1311.050 DT     00C0 Rx 8  00 00 00 00 00 00 00 00 
    867      1311.876 DT     06B1 Rx 8  00 32 00 01 14 13 00 13 
    868      1312.103 DT     0038 Rx 1  14 
    869      1312.331 DT     0037 Rx 1  5C 
    870      1312.808 DT     06D0 Rx 8  33 00 00 0A D2 99 03 83 
    871      1317.591 DT     00A3 Rx 8  F3 0D 30 1F 10 00 00 00 
    872      1318.090 DT     00A4 Rx 8  00 00 00 00 00 01 00 00 
    873      1318.572 DT     00A5 Rx 8  9F 06 00 00 00 00 61 F9 
    874      1319.054 DT     00A6 Rx 8  03 00 FE FF 02 00 00 00 
    875      1319.540 DT     00A7 Rx 8  D4 0A 00 00 01 00 FF FF 
    876      1319.768 DT     0038 Rx 1  14 
    877      1319.996 DT     0037 Rx 1  5C 
    878      1320.486 DT     00A8 Rx 8  00 00 00 00 FC FF 01 00 
    879      1320.968 DT     00AA Rx 8  04 0C 09 03 20 10 40 00 
    880      1321.468 DT     00AB Rx 8  00 00 00 00 00 00 00 00 
    881      1321.959 DT     00AC Rx 8  00 00 00 00 8B 0D 00 00 
    882      1322.454 DT     00AD Rx 8  00 00 00 00 00 00 00 00 
    883      1322.936 DT     00B1 Rx 8  06 09 FA F6 00 00 00 00 
    884      1323.436 DT     00C0 Rx 8  00 00 00 00 00 00 00 00 
    885      1323.909 DT     06D0 Rx 8  34 00 00 0A D2 96 48 C6 
    886      1326.592 DT     00A0 Rx 8  F6 00 09 01 0B 01 39 01 
    887      1327.056 DT     00A1 Rx 8  4B 01 B8 0B B8 0B C6 00 
    888      1327.538 DT     00A2 Rx 8  B8 00 B8 00 C9 FD 00 00 
    889      1327.766 DT     0038 Rx 1  14 
    890      1327.993 DT     0037 Rx 1  5C 
    891      1328.466 DT     00A9 Rx 8  96 00 FD 00 FC 01 7F 04 
    892      1328.935 DT     00AE Rx 8  10 00 30 65 24 05 24 20 
    893      1329.412 DT     06D0 Rx 8  35 00 00 0A D2 8E D2 49 
    894      1331.066 DT     00C0 Rx 8  00 00 00 00 00 00 00 00 
    895      1335.629 DT     0037 Rx 1  5C 
    896      1335.856 DT     0038 Rx 1  14 
    897      1336.409 DT 1839F380 Rx 8  00 13 14 13 24 23 03 C5 
    898      1336.963 DT 1838F380 Rx 8  00 0B 13 0B 13 14 23 03 
    899      1337.199 DT     0000 Rx 1  00 
    900      1337.552 DT     0001 Rx 4  00 00 00 00 
    901      1337.908 DT     0002 Rx 4  00 00 00 00 
    902      1338.256 DT     0003 Rx 4  01 00 00 00 
    903      1338.591 DT     0080 Rx 4  06 14 00 9E 
    904      1339.064 DT     06D0 Rx 8  36 00 00 0A D2 99 03 86 
    905      1341.075 DT     00C0 Rx 8  00 00 00 00 00 00 00 00 
    906      1343.623 DT     0037 Rx 1  5C 
    907      1343.850 DT     0038 Rx 1  14 
    908      1344.323 DT     06D0 Rx 8  37 00 00 0A D2 96 48 C9 
    909      1347.974 DT     0080 Rx 8  00 00 FF FF 00 00 00 86 
    910      1351.075 DT     00C0 Rx 8  00 00 00 00 00 00 00 00 
    911      1351.628 DT     0037 Rx 1  5C 
    912      1351.855 DT     0038 Rx 1  14 
    913      1359.689 DT     0037 Rx 1  5C 
    914      1359.916 DT     0038 Rx 1  14 
    915      1361.084 DT     00C0 Rx 8  00 00 00 00 00 00 00 00 
    916      1367.622 DT     0037 Rx 1  5C 
    917      1367.849 DT     0038 Rx 1  14 
    918      1368.327 DT     06D0 Rx 8  38 00 00 0A D1 02 0D FA 
    919      1371.095 DT     00C0 Rx 8  00 00 00 00 00 00 00 00 
    920      1375.622 DT     0037 Rx 1  5C 
    921      1375.849 DT     0038 Rx 1  14 
    922      1381.098 DT     00C0 Rx 8  00 00 00 00 00 00 00 00 
    923      1383.692 DT     0037 Rx 1  5C 
    924      1383.919 DT     0038 Rx 1  14 
    925      1384.406 DT     06D0 Rx 8  39 00 00 0A D1 02 0D FB 
    926      1391.103 DT     00C0 Rx 8  00 00 00 00 00 00 00 00 
    927      1391.620 DT     0037 Rx 1  5C 
    928      1392.200 DT 1806E9F4 Rx 8  0B D0 00 0A 00 00 00 00 
    929      1392.780 DT 1806E5F4 Rx 8  0B D0 00 0A 00 00 00 00 
    930      1393.356 DT 1806E7F4 Rx 8  0B D0 00 0A 00 00 00 00 
    931      1393.584 DT     0038 Rx 1  14 
    932      1394.065 DT     06D0 Rx 8  3A 00 00 0A D1 02 0D FC 
    933      1399.617 DT     0037 Rx 1  5C 
    934      1399.845 DT     0038 Rx 1  14 
    935      1401.111 DT     00C0 Rx 8  00 00 00 00 00 00 00 00 
    936      1407.688 DT     0037 Rx 1  5C 
    937      1407.915 DT     0038 Rx 1  14 
    938      1408.388 DT     06D0 Rx 8  3B 00 00 0A D2 A4 10 A3 
    939      1411.116 DT     00C0 Rx 8  00 00 00 00 00 00 00 00 
    940      1415.866 DT     06B1 Rx 8  00 32 00 01 14 13 00 13 
    941      1416.094 DT     0038 Rx 1  14 
    942      1416.322 DT     0037 Rx 1  5C 
    943      1416.799 DT     06D0 Rx 8  3C 00 00 0A D2 61 A8 F9 
    944      1419.571 DT     00A3 Rx 8  F3 0D 30 1F 10 00 00 00 
    945      1420.071 DT     00A4 Rx 8  00 00 00 00 00 01 00 00 
    946      1420.549 DT     00A5 Rx 8  A0 06 00 00 00 00 61 F9 
    947      1421.040 DT     00A6 Rx 8  0F 00 03 00 07 00 00 00 
    948      1421.522 DT     00A7 Rx 8  D3 0A 00 00 00 00 00 00 
    949      1422.004 DT     00A8 Rx 8  00 00 00 00 0E 00 F4 FF 
    950      1422.486 DT     00AA Rx 8  04 0C 09 03 20 10 40 00 
    951      1422.985 DT     00AB Rx 8  00 00 00 00 00 00 00 00 
    952      1423.481 DT     00AC Rx 8  00 00 00 00 AD 0D 00 00 
    953      1423.708 DT     0038 Rx 1  14 
    954      1423.936 DT     0037 Rx 1  5C 
    955      1424.436 DT     00AD Rx 8  00 00 00 00 00 00 00 00 
    956      1424.918 DT     00B1 Rx 8  06 09 FA F6 00 00 00 00 
    957      1425.417 DT     00C0 Rx 8  00 00 00 00 00 00 00 00 
    958      1428.464 DT     00A0 Rx 8  F6 00 09 01 0B 01 39 01 
    959      1428.928 DT     00A1 Rx 8  4B 01 B8 0B B8 0B C7 00 
    960      1429.406 DT     00A2 Rx 8  B8 00 B8 00 C9 FD 00 00 
    961      1429.883 DT     00A9 Rx 8  95 00 FD 00 FD 01 7E 04 
    962      1430.357 DT     00AE Rx 8  10 00 30 65 24 05 24 20 
    963      1431.030 DT     00C0 Rx 8  00 00 00 00 00 00 00 00 
    964      1431.588 DT     0037 Rx 1  5C 
    965      1431.815 DT     0038 Rx 1  14 
    966      1432.301 DT     06D0 Rx 8  3D 00 00 0A D1 00 23 13 
    967      1435.723 DT     0080 Rx 4  05 13 00 9C 
    968      1436.276 DT 1839F380 Rx 8  00 13 14 13 24 23 03 C5 
    969      1436.839 DT 1838F380 Rx 8  00 0C 13 0C 13 14 23 03 
    970      1437.075 DT     0000 Rx 1  00 
    971      1437.428 DT     0001 Rx 4  00 00 00 00 
    972      1437.785 DT     0002 Rx 4  00 00 00 00 
    973      1438.137 DT     0003 Rx 4  00 00 00 00 
    974      1439.381 DT 18EEFF80 Rx 8  F3 00 80 F3 00 40 1E 90 
    975      1439.609 DT     0038 Rx 1  14 
    976      1439.836 DT     0037 Rx 1  5C 
    977      1440.318 DT     06D0 Rx 8  3E 00 00 0A D1 00 17 08 
    978      1441.036 DT     00C0 Rx 8  00 00 00 00 00 00 00 00 
    979      1447.510 DT     0037 Rx 1  5C 
    980      1447.738 DT     0038 Rx 1  14 
    981      1448.237 DT     0080 Rx 8  00 00 00 00 00 00 00 88 
    982      1451.040 DT     00C0 Rx 8  00 00 00 00 00 00 00 00 
    983      1455.586 DT     0037 Rx 1  5C 
    984      1455.813 DT     0038 Rx 1  14 
    985      1461.053 DT     00C0 Rx 8  00 00 00 00 00 00 00 00 
    986      1463.509 DT     0037 Rx 1  5C 
    987      1463.737 DT     0038 Rx 1  14 
    988      1464.214 DT     06D0 Rx 8  3F 00 00 0A D2 00 23 16 
    989      1471.059 DT     00C0 Rx 8  00 00 00 00 00 00 00 00 
    990      1471.510 DT     0037 Rx 1  5C 
    991      1471.737 DT     0038 Rx 1  14 
    992      1479.585 DT     0037 Rx 1  5C 
    993      1479.813 DT     0038 Rx 1  14 
    994      1480.286 DT     06D0 Rx 8  40 00 00 0A D2 00 17 0B 
    995      1481.062 DT     00C0 Rx 8  00 00 00 00 00 00 00 00 
    996      1487.505 DT     0037 Rx 1  5C 
    997      1487.732 DT     0038 Rx 1  14 
    998      1488.219 DT     06D0 Rx 8  41 00 00 0A D2 00 01 F6 
    999      1491.070 DT     00C0 Rx 8  00 00 00 00 00 00 00 00 
   1000      1495.505 DT     0037 Rx 1  5C 
   1001      1495.732 DT     0038 Rx 1  14 
   1002      1501.079 DT     00C0 Rx 8  00 00 00 00 00 00 00 00 
   1003      1503.575 DT     0037 Rx 1  5C 
   1004      1503.803 DT     0038 Rx 1  14 
   1005      1504.280 DT     06D0 Rx 8  42 00 00 0A D2 00 01 F7 
   1006      1511.084 DT     00C0 Rx 8  00 00 00 00 00 00 00 00 
   1007      1511.526 DT     0037 Rx 1  5C 
   1008      1511.754 DT     0038 Rx 1  14 
   1009      1512.235 DT     06D0 Rx 8  43 00 00 0A D2 00 5F 56 
   1010      1519.825 DT     06B1 Rx 8  00 32 00 01 14 13 00 13 
   1011      1520.053 DT     0038 Rx 1  14 
   1012      1520.279 DT     0037 Rx 1  5C 
   1013      1521.091 DT     00C0 Rx 8  00 00 00 00 00 00 00 00 
   1014      1521.564 DT     00A3 Rx 8  F3 0D 30 1F 10 00 00 00 
   1015      1522.063 DT     00A4 Rx 8  00 00 00 00 00 01 00 00 
   1016      1522.545 DT     00A5 Rx 8  A0 06 00 00 00 00 61 F9 
   1017      1523.032 DT     00A6 Rx 8  02 00 FD FF FB FF 00 00 
   1018      1523.509 DT     00A7 Rx 8  D2 0A 00 00 01 00 00 00 
   1019      1524.014 DT     00A8 Rx 8  00 00 00 00 FF FF FD FF 
   1020      1524.491 DT     00AA Rx 8  04 0C 09 03 20 10 40 00 
   1021      1524.991 DT     00AB Rx 8  00 00 00 00 00 00 00 00 
   1022      1525.482 DT     00AC Rx 8  00 00 00 00 CF 0D 00 00 
   1023      1525.982 DT     00AD Rx 8  00 00 00 00 00 00 00 00 
   1024      1526.464 DT     00B1 Rx 8  06 09 FA F6 00 00 00 00 
   1025      1527.498 DT     0037 Rx 1  5C 
   1026      1527.726 DT     0038 Rx 1  14 
   1027      1528.193 DT     06D0 Rx 8  44 00 00 0A D2 00 AA A2 
   1028      1530.480 DT     00A0 Rx 8  F6 00 09 01 0B 01 39 01 
   1029      1530.948 DT     00A1 Rx 8  4C 01 B8 0B B8 0B C8 00 
   1030      1531.417 DT     00A2 Rx 8  B9 00 B9 00 C9 FD 00 00 
   1031      1531.895 DT     00A9 Rx 8  94 00 FD 00 FC 01 7C 04 
   1032      1532.368 DT     00AE Rx 8  10 00 30 65 24 05 24 20 
   1033      1532.867 DT     00C0 Rx 8  00 00 00 00 00 00 00 00 
   1034      1535.649 DT     0080 Rx 4  06 14 00 9E 
   1035      1535.875 DT     0038 Rx 1  14 
   1036      1536.103 DT     0037 Rx 1  5C 
   1037      1536.660 DT 1839F380 Rx 8  00 13 14 13 24 23 03 C5 
   1038      1536.897 DT     0000 Rx 1  00 
   1039      1537.249 DT     0001 Rx 4  00 00 00 00 
   1040      1537.606 DT     0002 Rx 4  00 00 00 00 
   1041      1537.954 DT     0003 Rx 4  02 00 00 00 
   1042      1538.521 DT 1838F380 Rx 8  00 0D 13 0D 13 14 23 03 
   1043      1541.106 DT     00C0 Rx 8  00 00 00 00 00 00 00 00 
   1044      1543.500 DT     0037 Rx 1  5C 
   1045      1543.726 DT     0038 Rx 1  14 
   1046      1544.203 DT     06D0 Rx 8  45 00 00 0A D2 00 70 69 
   1047      1547.840 DT     0080 Rx 8  00 00 FF FF 00 00 00 86 
   1048      1551.112 DT     00C0 Rx 8  00 00 00 00 00 00 00 00 
   1049      1551.499 DT     0037 Rx 1  5C 
   1050      1551.727 DT     0038 Rx 1  14 
   1051      1559.569 DT     0037 Rx 1  5C 
   1052      1559.796 DT     0038 Rx 1  14 
   1053      1561.120 DT     00C0 Rx 8  00 00 00 00 00 00 00 00 
   1054      1567.497 DT     0037 Rx 1  5C 
   1055      1567.725 DT     0038 Rx 1  14 
   1056      1568.198 DT     06D0 Rx 8  46 00 00 0A D2 00 6A 64 
   1057      1571.126 DT     00C0 Rx 8  00 00 00 00 00 00 00 00 
   1058      1575.493 DT     0037 Rx 1  5C 
   1059      1575.720 DT     0038 Rx 1  14 
   1060      1576.197 DT     06D0 Rx 8  47 00 00 0A D2 07 F9 FB 
   1061      1581.131 DT     00C0 Rx 8  00 00 00 00 00 00 00 00 
   1062      1583.568 DT     0037 Rx 1  5C 
   1063      1583.796 DT     0038 Rx 1  14 
   1064      1584.282 DT     06D0 Rx 8  48 00 00 0A D2 07 F9 FC 
   1065      1591.135 DT     00C0 Rx 8  00 00 00 00 00 00 00 00 
   1066      1591.492 DT     0037 Rx 1  5C 
   1067      1591.720 DT     0038 Rx 1  14 
   1068      1592.201 DT     06D0 Rx 8  49 00 00 0A D2 00 00 FD 
   1069      1599.487 DT     0037 Rx 1  5C 
   1070      1599.714 DT     0038 Rx 1  14 
   1071      1601.145 DT     00C0 Rx 8  00 00 00 00 00 00 00 00 
   1072      1607.566 DT     0037 Rx 1  5C 
   1073      1607.794 DT     0038 Rx 1  14 
   1074      1608.284 DT     06D0 Rx 8  4A 00 00 0A D2 00 00 FE 
   1075      1611.151 DT     00C0 Rx 8  00 00 00 00 00 00 00 00 
   1076      1615.491 DT     0037 Rx 1  5C 
   1077      1615.718 DT     0038 Rx 1  14 
   1078      1616.200 DT     06D0 Rx 8  4B 00 00 0A D2 00 00 FF 
   1079      1621.157 DT     00C0 Rx 8  00 00 00 00 00 00 00 00 
   1080      1623.465 DT     00A3 Rx 8  F3 0D 30 1F 10 00 00 00 
   1081      1623.693 DT     0038 Rx 1  14 
   1082      1623.920 DT     0037 Rx 1  5C 
   1083      1624.420 DT     00A4 Rx 8  00 00 00 00 00 01 00 00 
   1084      1624.897 DT     00A5 Rx 8  A0 06 00 00 00 00 61 F9 
   1085      1625.384 DT     00A6 Rx 8  FE FF 03 00 FC FF 00 00 
   1086      1625.866 DT     00A7 Rx 8  D3 0A 00 00 00 00 00 00 
   1087      1626.361 DT     00A8 Rx 8  00 00 00 00 02 00 02 00 
   1088      1626.843 DT     00AA Rx 8  04 0C 09 03 20 10 40 00 
   1089      1627.343 DT     00AB Rx 8  00 00 00 00 00 00 00 00 
   1090      1627.838 DT     00AC Rx 8  00 00 00 00 F1 0D 00 00 
   1091      1628.334 DT     00AD Rx 8  00 00 00 00 00 00 00 00 
   1092      1628.820 DT     00B1 Rx 8  06 09 FA F6 00 00 00 00 
   1093      1629.297 DT     06B1 Rx 8  00 32 00 01 14 13 00 13 
   1094      1631.160 DT     00C0 Rx 8  00 00 00 00 00 00 00 00 
   1095      1631.566 DT     0037 Rx 1  5C 
   1096      1631.793 DT     0038 Rx 1  14 
   1097      1632.280 DT     06D0 Rx 8  4C 00 00 0A D2 00 00 00 
   1098      1632.757 DT     00A0 Rx 8  F6 00 08 01 0B 01 3A 01 
   1099      1633.221 DT     00A1 Rx 8  4B 01 B8 0B B8 0B C8 00 
   1100      1633.690 DT     00A2 Rx 8  BA 00 BA 00 C9 FD 00 00 
   1101      1634.159 DT     00A9 Rx 8  95 00 FD 00 FC 01 7E 04 
   1102      1634.632 DT     00AE Rx 8  10 00 30 65 24 05 24 20 
   1103      1635.639 DT     0080 Rx 4  05 13 00 9C 
   1104      1636.197 DT 1839F380 Rx 8  00 13 14 13 24 23 03 C5 
   1105      1636.750 DT 1838F380 Rx 8  00 0E 13 0E 13 14 23 03 
   1106      1636.982 DT     0000 Rx 1  00 
   1107      1637.334 DT     0001 Rx 4  00 00 00 00 
   1108      1637.686 DT     0002 Rx 4  01 00 00 00 
   1109      1638.039 DT     0003 Rx 4  00 00 00 00 
   1110      1639.336 DT 18EEFF80 Rx 8  F3 00 80 F3 00 40 1E 90 
   1111      1639.564 DT     0038 Rx 1  14 
   1112      1639.791 DT     0037 Rx 1  5C 
   1113      1640.273 DT     06D0 Rx 8  4D 00 00 0A D1 00 00 00 
   1114      1641.170 DT     00C0 Rx 8  00 00 00 00 00 00 00 00 
   1115      1647.484 DT     0037 Rx 1  5C 
   1116      1647.711 DT     0038 Rx 1  14 
   1117      1648.202 DT     0080 Rx 8  00 00 FF FF 00 00 00 86 
   1118      1651.175 DT     00C0 Rx 8  00 00 00 00 00 00 00 00 
   1119      1655.555 DT     0037 Rx 1  5C 
   1120      1655.782 DT     0038 Rx 1  14 
   1121      1661.187 DT     00C0 Rx 8  00 00 00 00 00 00 00 00 
   1122      1663.482 DT     0037 Rx 1  5C 
   1123      1663.710 DT     0038 Rx 1  14 
   1124      1664.187 DT     06D0 Rx 8  4E 00 00 0A D2 00 01 03 
   1125      1671.188 DT     00C0 Rx 8  00 00 00 00 00 00 00 00 
   1126      1671.483 DT     0037 Rx 1  5C 
   1127      1671.710 DT     0038 Rx 1  14 
   1128      1672.179 DT     06D0 Rx 8  4F 00 00 0A D2 10 80 93 
   1129      1679.553 DT     0037 Rx 1  5C 
   1130      1679.781 DT     0038 Rx 1  14 
   1131      1680.249 DT     06D0 Rx 8  50 00 00 0A D2 4F 31 84 
   1132      1681.195 DT     00C0 Rx 8  00 00 00 00 00 00 00 00 
   1133      1687.477 DT     0037 Rx 1  5C 
   1134      1687.705 DT     0038 Rx 1  14 
   1135      1688.169 DT     06D0 Rx 8  51 00 00 0A D2 21 31 57 
   1136      1691.204 DT     00C0 Rx 8  00 00 00 00 00 00 00 00 
   1137      1695.477 DT     0037 Rx 1  5C 
   1138      1695.705 DT     0038 Rx 1  14 
   1139      1701.212 DT     00C0 Rx 8  00 00 00 00 00 00 00 00 
   1140      1703.557 DT     0037 Rx 1  5C 
   1141      1703.784 DT     0038 Rx 1  14 
   1142      1704.266 DT     06D0 Rx 8  52 00 00 0A D2 00 00 06 
   1143      1711.217 DT     00C0 Rx 8  00 00 00 00 00 00 00 00 
   1144      1711.476 DT     0037 Rx 1  5C 
   1145      1711.704 DT     0038 Rx 1  14 
   1146      1712.181 DT     06D0 Rx 8  53 00 00 0A D1 00 00 06 
   1147      1719.472 DT     0037 Rx 1  5C 
   1148      1719.699 DT     0038 Rx 1  14 
   1149      1721.224 DT     00C0 Rx 8  00 00 00 00 00 00 00 00 
   1150      1725.452 DT     00A3 Rx 8  F3 0D 30 1F 10 00 00 00 
   1151      1725.952 DT     00A4 Rx 8  00 00 00 00 00 01 00 00 
   1152      1726.431 DT     00A5 Rx 8  9F 06 00 00 00 00 61 F9 
   1153      1726.917 DT     00A6 Rx 8  0F 00 09 00 01 00 00 00 
   1154      1727.395 DT     00A7 Rx 8  D3 0A 00 00 01 00 00 00 
   1155      1727.623 DT     0038 Rx 1  14 
   1156      1727.850 DT     0037 Rx 1  5C 
   1157      1728.341 DT     00A8 Rx 8  00 00 00 00 16 00 F4 FF 
   1158      1728.818 DT     00AA Rx 8  04 0C 09 03 20 10 40 00 
   1159      1729.318 DT     00AB Rx 8  00 00 00 00 00 00 00 00 
   1160      1729.805 DT     00AC Rx 8  00 00 00 00 13 0E 00 00 
   1161      1730.303 DT     00AD Rx 8  00 00 00 00 00 00 00 00 
   1162      1730.785 DT     00B1 Rx 8  06 09 FA F6 00 00 00 00 
   1163      1731.285 DT     00C0 Rx 8  00 00 00 00 00 00 00 00 
   1164      1731.763 DT     06B1 Rx 8  00 32 00 01 14 13 00 13 
   1165      1734.455 DT     00A0 Rx 8  F6 00 08 01 0B 01 3A 01 
   1166      1734.919 DT     00A1 Rx 8  4C 01 B8 0B B8 0B C9 00 
   1167      1735.392 DT     00A2 Rx 8  BB 00 BB 00 C9 FD 00 00 
   1168      1735.620 DT     0038 Rx 1  14 
   1169      1735.848 DT     0037 Rx 1  5C 
   1170      1736.320 DT     00A9 Rx 8  95 00 FD 00 FC 01 80 04 
   1171      1736.793 DT     00AE Rx 8  10 00 30 65 24 05 24 20 
   1172      1737.030 DT     0000 Rx 1  00 
   1173      1737.382 DT     0001 Rx 4  00 00 00 00 
   1174      1737.739 DT     0002 Rx 4  00 00 00 00 
   1175      1738.091 DT     0003 Rx 4  00 00 00 00 
   1176      1738.648 DT 1839F380 Rx 8  00 13 14 13 24 23 03 C5 
   1177      1739.202 DT 1838F380 Rx 8  00 0F 13 0F 13 14 23 03 
   1178      1739.541 DT     0080 Rx 4  06 14 00 9E 
   1179      1741.235 DT     00C0 Rx 8  00 00 00 00 00 00 00 00 
   1180      1743.472 DT     0037 Rx 1  5C 
   1181      1743.700 DT     0038 Rx 1  14 
   1182      1744.177 DT     06D0 Rx 8  54 00 00 0A D1 00 00 07 
   1183      1747.813 DT     0080 Rx 8  00 00 FF FF 00 00 00 86 
   1184      1751.245 DT     00C0 Rx 8  00 00 00 00 00 00 00 00 
   1185      1751.540 DT     0037 Rx 1  5C 
   1186      1751.767 DT     0038 Rx 1  14 
   1187      1759.471 DT     0037 Rx 1  5C 
   1188      1759.699 DT     0038 Rx 1  14 
   1189      1761.250 DT     00C0 Rx 8  00 00 00 00 00 00 00 00 
   1190      1767.471 DT     0037 Rx 1  5C 
   1191      1767.699 DT     0038 Rx 1  14 
   1192      1768.181 DT     06D0 Rx 8  55 00 00 0A D1 00 00 08 
   1193      1771.255 DT     00C0 Rx 8  00 00 00 00 00 00 00 00 
   1194      1775.543 DT     0037 Rx 1  5C 
   1195      1775.770 DT     0038 Rx 1  14 
   1196      1776.252 DT     06D0 Rx 8  56 00 00 0A D1 00 00 09 
   1197      1781.260 DT     00C0 Rx 8  00 00 00 00 00 00 00 00 
   1198      1783.467 DT     0037 Rx 1  5C 
   1199      1783.694 DT     0038 Rx 1  14 
   1200      1784.171 DT     06D0 Rx 8  57 00 00 0A D2 00 00 0B 
   1201      1791.270 DT     00C0 Rx 8  00 00 00 00 00 00 00 00 
   1202      1791.498 DT     0038 Rx 1  14 
   1203      1791.725 DT     0037 Rx 1  5C 
   1204      1792.198 DT     06D0 Rx 8  58 00 00 0A D2 FF D8 E3 
   1205      1799.474 DT     0037 Rx 1  5C 
   1206      1799.702 DT     0038 Rx 1  14 
   1207      1801.274 DT     00C0 Rx 8  00 00 00 00 00 00 00 00 
   1208      1807.531 DT     0037 Rx 1  5C 
   1209      1807.759 DT     0038 Rx 1  14 
   1210      1811.284 DT     00C0 Rx 8  00 00 00 00 00 00 00 00 
   1211      1815.460 DT     0037 Rx 1  5C 
   1212      1815.687 DT     0038 Rx 1  14 
   1213      1816.168 DT     06D0 Rx 8  59 00 00 0A D2 00 00 0D 
   1214      1821.290 DT     00C0 Rx 8  00 00 00 00 00 00 00 00 
   1215      1823.541 DT     0037 Rx 1  5C 
   1216      1823.767 DT     0038 Rx 1  14 
   1217      1827.422 DT     00A3 Rx 8  F3 11 30 1F 10 00 00 00 
   1218      1827.921 DT     00A4 Rx 8  00 00 00 00 00 01 00 00 
   1219      1828.403 DT     00A5 Rx 8  A0 06 00 00 00 00 61 F9 
   1220      1828.881 DT     00A6 Rx 8  F9 FF F3 FF F6 FF 00 00 
   1221      1829.363 DT     00A7 Rx 8  D2 0A 00 00 01 00 00 00 
   1222      1829.863 DT     00A8 Rx 8  00 00 00 00 03 00 02 00 
   1223      1830.340 DT     00AA Rx 8  04 0C 09 03 20 10 40 00 
   1224      1830.840 DT     00AB Rx 8  00 00 00 00 00 00 00 00 
   1225      1831.340 DT     00AC Rx 8  00 00 00 00 35 0E 00 00 
   1226      1831.567 DT     0038 Rx 1  14 
   1227      1831.794 DT     0037 Rx 1  5C 
   1228      1832.289 DT     00AD Rx 8  00 00 00 00 00 00 00 00 
   1229      1832.771 DT     00B1 Rx 8  06 09 FA F6 00 00 00 00 
   1230      1833.271 DT     00C0 Rx 8  00 00 00 00 00 00 00 00 
   1231      1833.753 DT     06B1 Rx 8  00 32 00 01 14 13 00 13 
   1232      1834.231 DT     06D0 Rx 8  5A 00 00 0A D2 00 00 0E 
   1233      1835.608 DT     0080 Rx 4  05 13 00 9C 
   1234      1836.166 DT 1839F380 Rx 8  00 13 14 13 24 23 03 C5 
   1235      1836.630 DT     00A0 Rx 8  F6 00 09 01 0B 01 3A 01 
   1236      1836.867 DT     0000 Rx 1  00 
   1237      1837.219 DT     0001 Rx 4  00 00 00 00 
   1238      1837.580 DT     0002 Rx 4  00 00 00 00 
   1239      1837.928 DT     0003 Rx 4  00 00 00 00 
   1240      1838.392 DT     00A1 Rx 8  4D 01 B8 0B B8 0B CA 00 
   1241      1838.870 DT     00A2 Rx 8  BC 00 BC 00 C9 FD 00 00 
   1242      1839.342 DT     00A9 Rx 8  96 00 FD 00 FC 01 7B 04 
   1243      1839.570 DT     0038 Rx 1  14 
   1244      1839.797 DT     0037 Rx 1  5C 
   1245      1840.270 DT     00AE Rx 8  10 00 30 65 24 05 24 20 
   1246      1840.823 DT 1838F380 Rx 8  00 10 13 10 13 14 23 03 
   1247      1841.386 DT 18EEFF80 Rx 8  F3 00 80 F3 00 40 1E 90 
   1248      1841.885 DT     00C0 Rx 8  00 00 00 00 00 00 00 00 
   1249      1847.455 DT     0037 Rx 1  5C 
   1250      1847.683 DT     0038 Rx 1  14 
   1251      1848.169 DT     06D0 Rx 8  5B 00 00 0A D2 00 00 0F 
   1252      1848.660 DT     0080 Rx 8  00 00 FF FF 00 00 00 86 
   1253      1851.312 DT     00C0 Rx 8  00 00 00 00 00 00 00 00 
   1254      1855.456 DT     0037 Rx 1  5C 
   1255      1855.683 DT     0038 Rx 1  14 
   1256      1861.316 DT     00C0 Rx 8  00 00 00 00 00 00 00 00 
   1257      1863.535 DT     0037 Rx 1  5C 
   1258      1863.762 DT     0038 Rx 1  14 
   1259      1871.321 DT     00C0 Rx 8  00 00 00 00 00 00 00 00 
   1260      1871.548 DT     0038 Rx 1  14 
   1261      1871.776 DT     0037 Rx 1  5C 
   1262      1872.262 DT     06D0 Rx 8  5C 00 00 0A D2 00 00 10 
   1263      1879.449 DT     0037 Rx 1  5C 
   1264      1879.677 DT     0038 Rx 1  14 
   1265      1880.159 DT     06D0 Rx 8  5D 00 00 0A D2 00 00 11 
   1266      1881.331 DT     00C0 Rx 8  00 00 00 00 00 00 00 00 
   1267      1887.458 DT     0037 Rx 1  5C 
   1268      1887.685 DT     0038 Rx 1  14 
   1269      1891.336 DT     00C0 Rx 8  00 00 00 00 00 00 00 00 
   1270      1895.520 DT     0037 Rx 1  5C 
   1271      1895.747 DT     0038 Rx 1  14 
   1272      1901.344 DT     00C0 Rx 8  00 00 00 00 00 00 00 00 
   1273      1903.452 DT     0037 Rx 1  5C 
   1274      1903.679 DT     0038 Rx 1  14 
   1275      1904.161 DT     06D0 Rx 8  5E 00 00 0A D2 00 00 12 
   1276      1911.349 DT     00C0 Rx 8  00 00 00 00 00 00 00 00 
   1277      1911.576 DT     0038 Rx 1  14 
   1278      1911.804 DT     0037 Rx 1  5C 
   1279      1919.446 DT     0037 Rx 1  5C 
   1280      1919.674 DT     0038 Rx 1  14 
   1281      1920.155 DT     06D0 Rx 8  5F 00 00 0A D2 00 00 13 
   1282      1921.359 DT     00C0 Rx 8  00 00 00 00 00 00 00 00 
   1283      1927.446 DT     0037 Rx 1  5C 
   1284      1927.674 DT     0038 Rx 1  14 
   1285      1928.164 DT     06D0 Rx 8  60 00 00 0A D2 00 00 14 
   1286      1929.395 DT     00A3 Rx 8  F3 0D 30 1F 10 00 00 00 
   1287      1929.895 DT     00A4 Rx 8  00 00 00 00 00 01 00 00 
   1288      1930.377 DT     00A5 Rx 8  9F 06 00 00 00 00 61 F9 
   1289      1930.872 DT     00A6 Rx 8  03 00 08 00 06 00 00 00 
   1290      1931.363 DT     00A7 Rx 8  D4 0A 00 00 01 00 00 00 
   1291      1931.854 DT     00A8 Rx 8  00 00 00 00 09 00 F9 FF 
   1292      1932.336 DT     00AA Rx 8  04 0C 09 03 20 10 40 00 
   1293      1932.835 DT     00AB Rx 8  00 00 00 00 00 00 00 00 
   1294      1933.326 DT     00AC Rx 8  00 00 00 00 57 0E 00 00 
   1295      1933.821 DT     00AD Rx 8  00 00 00 00 00 00 00 00 
   1296      1934.307 DT     00B1 Rx 8  06 09 FA F6 00 00 00 00 
   1297      1934.807 DT     00C0 Rx 8  00 00 00 00 00 00 00 00 
   1298      1935.610 DT     0080 Rx 4  06 14 00 9E 
   1299      1935.838 DT     0038 Rx 1  14 
   1300      1936.065 DT     0037 Rx 1  5C 
   1301      1936.622 DT 1839F380 Rx 8  00 13 14 13 24 23 03 C5 
   1302      1936.855 DT     0000 Rx 1  00 
   1303      1937.207 DT     0001 Rx 4  00 00 00 00 
   1304      1937.568 DT     0002 Rx 4  00 00 00 00 
   1305      1937.921 DT     0003 Rx 4  00 00 00 00 
   1306      1938.470 DT 1838F380 Rx 8  00 11 13 11 13 14 23 03 
   1307      1938.938 DT     00A0 Rx 8  F6 00 09 01 0B 01 3A 01 
   1308      1939.398 DT     00A1 Rx 8  4D 01 B8 0B B8 0B CB 00 
   1309      1939.871 DT     00A2 Rx 8  BD 00 BD 00 C9 FD 00 00 
   1310      1940.339 DT     00A9 Rx 8  95 00 FD 00 FC 01 7C 04 
   1311      1940.812 DT     00AE Rx 8  10 00 30 65 24 05 24 20 
   1312      1941.294 DT     06B1 Rx 8  00 32 00 01 14 13 00 13 
   1313      1941.789 DT     00C0 Rx 8  00 00 00 00 00 00 00 00 
   1314      1942.276 DT     06D0 Rx 8  61 00 00 0A D2 00 00 15 
   1315      1943.448 DT     0037 Rx 1  5C 
   1316      1943.675 DT     0038 Rx 1  14 
   1317      1944.157 DT     06D0 Rx 8  62 00 00 0A D2 00 00 16 
   1318      1947.790 DT     0080 Rx 8  00 00 FF FF 00 00 00 86 
   1319      1951.377 DT     00C0 Rx 8  00 00 00 00 00 00 00 00 
   1320      1951.605 DT     0038 Rx 1  14 
   1321      1951.832 DT     0037 Rx 1  5C 
   1322      1952.314 DT     06D0 Rx 8  63 00 00 0A D2 00 00 17 
   1323      1959.443 DT     0037 Rx 1  5C 
   1324      1959.671 DT     0038 Rx 1  14 
   1325      1961.382 DT     00C0 Rx 8  00 00 00 00 00 00 00 00 
   1326      1967.510 DT     0037 Rx 1  5C 
   1327      1967.737 DT     0038 Rx 1  14 
   1328      1971.387 DT     00C0 Rx 8  00 00 00 00 00 00 00 00 
   1329      1975.438 DT     0037 Rx 1  5C 
   1330      1975.665 DT     0038 Rx 1  14 
   1331      1976.147 DT     06D0 Rx 8  64 00 00 0A D1 00 00 17 
   1332      1981.397 DT     00C0 Rx 8  00 00 00 00 00 00 00 00 
   1333      1983.439 DT     0037 Rx 1  5C 
   1334      1983.666 DT     0038 Rx 1  14 
   1335      1991.402 DT     00C0 Rx 8  00 00 00 00 00 00 00 00 
   1336      1991.629 DT     0038 Rx 1  14 
   1337      1991.857 DT     0037 Rx 1  5C 
   1338      1992.343 DT     06D0 Rx 8  65 00 00 0A D1 00 00 18 
   1339      1999.437 DT     0037 Rx 1  5C 
   1340      1999.664 DT     0038 Rx 1  14 
   1341      2000.137 DT     06D0 Rx 8  66 00 00 0A D1 00 00 19 
   1342      2001.412 DT     00C0 Rx 8  00 00 00 00 00 00 00 00 
   1343      2007.437 DT     0037 Rx 1  5C 
   1344      2007.664 DT     0038 Rx 1  14 
   1345      2011.417 DT     00C0 Rx 8  00 00 00 00 00 00 00 00 
   1346      2015.503 DT     0037 Rx 1  5C 
   1347      2015.731 DT     0038 Rx 1  14 
   1348      2016.208 DT     06D0 Rx 8  67 00 00 0A D2 FF FF 19 
   1349      2021.422 DT     00C0 Rx 8  00 00 00 00 00 00 00 00 
   1350      2023.433 DT     0037 Rx 1  5C 
   1351      2023.660 DT     0038 Rx 1  14 
   1352      2024.146 DT     06D0 Rx 8  68 00 00 0A D2 00 00 1C 
   1353      2031.428 DT     00C0 Rx 8  00 00 00 00 00 00 00 00 
   1354      2031.655 DT     0038 Rx 1  14 
   1355      2031.883 DT     0037 Rx 1  5C 
   1356      2032.356 DT     00A3 Rx 8  F3 0D 30 1F 10 00 00 00 
   1357      2032.855 DT     00A4 Rx 8  00 00 00 00 00 01 00 00 
   1358      2033.333 DT     00A5 Rx 8  A0 06 00 00 00 00 61 F9 
   1359      2033.814 DT     00A6 Rx 8  F2 FF F8 FF 07 00 00 00 
   1360      2034.292 DT     00A7 Rx 8  D3 0A 00 00 01 00 FF FF 
   1361      2034.774 DT     00A8 Rx 8  00 00 00 00 EC FF 0A 00 
   1362      2035.256 DT     00AA Rx 8  04 0C 09 03 20 10 40 00 
   1363      2035.755 DT     00AB Rx 8  00 00 00 00 00 00 00 00 
   1364      2036.251 DT     00AC Rx 8  00 00 00 00 79 0E 00 00 
   1365      2036.746 DT     00AD Rx 8  00 00 00 00 00 00 00 00 
   1366      2036.983 DT     0000 Rx 1  00 
   1367      2037.335 DT     0001 Rx 4  00 00 00 00 
   1368      2037.692 DT     0002 Rx 4  00 00 00 00 
   1369      2038.044 DT     0003 Rx 4  00 00 00 00 
   1370      2038.531 DT     00B1 Rx 8  06 09 FA F6 00 00 00 00 
   1371      2039.084 DT 1839F380 Rx 8  00 13 14 13 24 23 03 C5 
   1372      2039.646 DT 1838F380 Rx 8  00 14 13 14 13 14 23 03 
   1373      2039.874 DT     0038 Rx 1  14 
   1374      2040.101 DT     0037 Rx 1  5C 
   1375      2040.432 DT     0080 Rx 4  05 13 00 9C 
   1376      2040.900 DT     00A0 Rx 8  F6 00 09 01 0B 01 3A 01 
   1377      2041.369 DT     00A1 Rx 8  4D 01 B8 0B B8 0B CC 00 
   1378      2041.850 DT     00A2 Rx 8  BE 00 BE 00 C9 FD 00 00 
   1379      2042.323 DT     00A9 Rx 8  95 00 FD 00 FC 01 7C 04 
   1380      2042.796 DT     00AE Rx 8  10 00 30 65 24 05 24 20 
   1381      2043.296 DT     00C0 Rx 8  00 00 00 00 00 00 00 00 
   1382      2043.853 DT 18EEFF80 Rx 8  F3 00 80 F3 00 40 1E 90 
   1383      2044.335 DT     06B1 Rx 8  00 32 00 01 14 13 00 13 
   1384      2047.500 DT     0037 Rx 1  5C 
   1385      2047.727 DT     0038 Rx 1  14 
   1386      2048.200 DT     06D0 Rx 8  6E 00 00 0A D1 00 40 61 
   1387      2048.700 DT     0080 Rx 8  00 00 00 00 FF FF 00 86 
   1388      2051.538 DT 000000C0 Rx 8  00 00 00 00 00 00 00 00 
   1389      2055.429 DT     0037 Rx 1  5C 
   1390      2055.657 DT     0038 Rx 1  14 
   1391      2061.445 DT     00C0 Rx 8  00 00 00 00 00 00 00 00 
   1392      2063.428 DT     0037 Rx 1  5C 
   1393      2063.656 DT     0038 Rx 1  14 
   1394      2064.124 DT     06D0 Rx 8  73 00 00 0A D1 07 F9 26 
   1395      2071.455 DT     00C0 Rx 8  00 00 00 00 00 00 00 00 
   1396      2071.683 DT     0038 Rx 1  14 
   1397      2071.910 DT     0037 Rx 1  5C 
   1398      2079.507 DT     0037 Rx 1  5C 
   1399      2079.735 DT     0038 Rx 1  14 
   1400      2081.463 DT     00C0 Rx 8  00 00 00 00 00 00 00 00 
   1401      2087.426 DT     0037 Rx 1  5C 
   1402      2087.654 DT     0038 Rx 1  14 
   1403      2088.126 DT     06D0 Rx 8  74 00 00 0A D2 07 F9 28 
   1404      2091.468 DT     00C0 Rx 8  00 00 00 00 00 00 00 00 
   1405      2095.422 DT     0037 Rx 1  5C 
   1406      2095.649 DT     0038 Rx 1  14 
   1407      2101.473 DT     00C0 Rx 8  00 00 00 00 00 00 00 00 
   1408      2103.430 DT     0037 Rx 1  5C 
   1409      2103.656 DT     0038 Rx 1  14 
   1410      2111.481 DT     00C0 Rx 8  00 00 00 00 00 00 00 00 
   1411      2111.708 DT     0038 Rx 1  14 
   1412      2111.936 DT     0037 Rx 1  5C 
   1413      2119.422 DT     0037 Rx 1  5C 
   1414      2119.650 DT     0038 Rx 1  14 
   1415      2120.123 DT     06D0 Rx 8  75 00 00 0A D2 00 00 29 
   1416      2121.487 DT     00C0 Rx 8  00 00 00 00 00 00 00 00 
   1417      2127.489 DT     0037 Rx 1  5C 
   1418      2127.717 DT     0038 Rx 1  14 
   1419      2131.496 DT     00C0 Rx 8  00 00 00 00 00 00 00 00 
   1420      2133.399 DT     00A3 Rx 8  F3 0D 30 1F 10 00 00 00 
   1421      2133.899 DT     00A4 Rx 8  00 00 00 00 00 01 00 00 
   1422      2134.377 DT     00A5 Rx 8  A0 06 00 00 00 00 61 F9 
   1423      2134.862 DT     00A6 Rx 8  0F 00 09 00 01 00 00 00 
   1424      2135.344 DT     00A7 Rx 8  D3 0A 00 00 00 00 00 00 
   1425      2135.572 DT     0038 Rx 1  14 
   1426      2135.799 DT     0037 Rx 1  5C 
   1427      2136.290 DT     00A8 Rx 8  00 00 00 00 16 00 F4 FF 
   1428      2136.768 DT     00AA Rx 8  04 0C 09 03 20 10 40 00 
   1429      2137.004 DT     0000 Rx 1  00 
   1430      2137.357 DT     0001 Rx 4  00 00 00 00 
   1431      2137.718 DT     0002 Rx 4  00 00 00 00 
   1432      2138.062 DT     0003 Rx 4  01 00 00 00 
   1433      2138.566 DT     00AB Rx 8  00 00 00 00 00 00 00 00 
   1434      2139.057 DT     00AC Rx 8  00 00 00 00 9B 0E 00 00 
   1435      2139.552 DT     00AD Rx 8  00 00 00 00 00 00 00 00 
   1436      2140.034 DT     00B1 Rx 8  06 09 FA F6 00 00 00 00 
   1437      2140.592 DT 1839F380 Rx 8  00 13 14 13 24 23 03 C5 
   1438      2141.141 DT 1838F380 Rx 8  00 15 13 15 13 14 23 03 
   1439      2141.475 DT     0080 Rx 4  06 14 00 9E 
   1440      2141.975 DT     00C0 Rx 8  00 00 00 00 00 00 00 00 
   1441      2142.444 DT     00A0 Rx 8  F6 00 09 01 0B 01 3A 01 
   1442      2142.902 DT     00A1 Rx 8  4B 01 B8 0B B8 0B CD 00 
   1443      2143.380 DT     00A2 Rx 8  BF 00 BF 00 C9 FD 00 00 
   1444      2143.608 DT     0038 Rx 1  14 
   1445      2143.835 DT     0037 Rx 1  5C 
   1446      2144.299 DT     00A9 Rx 8  95 00 FD 00 FC 01 7B 04 
   1447      2144.772 DT     00AE Rx 8  10 00 30 65 24 05 24 20 
   1448      2145.254 DT     06B1 Rx 8  00 32 00 01 14 13 00 13 
   1449      2145.727 DT     06D0 Rx 8  77 00 00 0A D2 00 00 2B 
   1450      2146.205 DT     06D0 Rx 8  76 00 00 0A D2 00 00 2A 
   1451      2147.756 DT     0080 Rx 8  00 00 30 65 24 05 00 46 
   1452      2151.508 DT     00C0 Rx 8  00 00 00 00 00 00 00 00 
   1453      2151.736 DT     0038 Rx 1  14 
   1454      2151.963 DT     0037 Rx 1  5C 
   1455      2152.436 DT     06D0 Rx 8  78 00 00 0A D2 00 00 2C 
   1456      2159.414 DT     0037 Rx 1  5C 
   1457      2159.646 DT     0038 Rx 1  14 
   1458      2161.518 DT     00C0 Rx 8  00 00 00 00 00 00 00 00 
   1459      2167.414 DT     0037 Rx 1  5C 
   1460      2167.641 DT     0038 Rx 1  14 
   1461      2168.123 DT     06D0 Rx 8  79 00 00 0A D2 00 00 2D 
   1462      2171.524 DT     00C0 Rx 8  00 00 00 00 00 00 00 00 
   1463      2175.414 DT     0037 Rx 1  5C 
   1464      2175.641 DT     0038 Rx 1  14 
   1465      2181.527 DT     00C0 Rx 8  00 00 00 00 00 00 00 00 
   1466      2183.489 DT     0037 Rx 1  5C 
   1467      2183.716 DT     0038 Rx 1  14 
   1468      2191.536 DT     00C0 Rx 8  00 00 00 00 00 00 00 00 
   1469      2191.764 DT     0038 Rx 1  14 
   1470      2191.991 DT     0037 Rx 1  5C 
   1471      2192.469 DT     06D0 Rx 8  7A 00 00 0A D1 00 00 2D 
   1472      2199.478 DT     0037 Rx 1  5C 
   1473      2200.058 DT 1806E9F4 Rx 8  0B D0 00 0A 00 00 00 00 
   1474      2200.638 DT 1806E5F4 Rx 8  0B D0 00 0A 00 00 00 00 
   1475      2201.213 DT 1806E7F4 Rx 8  0B D0 00 0A 00 00 00 00 
   1476      2201.441 DT     0038 Rx 1  14 
   1477      2201.941 DT     00C0 Rx 8  00 00 00 00 00 00 00 00 
   1478      2207.408 DT     0037 Rx 1  5C 
   1479      2207.635 DT     0038 Rx 1  14 
   1480      2208.117 DT     06D0 Rx 8  7B 00 00 0A D2 00 03 32 
   1481      2211.550 DT     00C0 Rx 8  00 00 00 00 00 00 00 00 
   1482      2215.488 DT     0037 Rx 1  5C 
   1483      2215.716 DT     0038 Rx 1  14 
   1484      2221.554 DT     00C0 Rx 8  00 00 00 00 00 00 00 00 
   1485      2223.404 DT     0037 Rx 1  5C 
   1486      2223.631 DT     0038 Rx 1  14 
   1487      2224.117 DT     06D0 Rx 8  7C 00 00 0A D1 00 08 37 
   1488      2231.565 DT     00C0 Rx 8  00 00 00 00 00 00 00 00 
   1489      2231.792 DT     0038 Rx 1  14 
   1490      2232.020 DT     0037 Rx 1  5C 
   1491      2235.380 DT     00A3 Rx 8  F3 0D 30 1F 10 00 00 00 
   1492      2235.884 DT     00A4 Rx 8  00 00 00 00 00 01 00 00 
   1493      2236.361 DT     00A5 Rx 8  A0 06 00 00 00 00 61 F9 
   1494      2236.843 DT     00A6 Rx 8  F9 FF 03 00 07 00 00 00 
   1495      2237.075 DT     0000 Rx 1  00 
   1496      2237.428 DT     0001 Rx 4  00 00 00 00 
   1497      2237.789 DT     0002 Rx 4  00 00 00 00 
   1498      2238.141 DT     0003 Rx 4  00 00 00 00 
   1499      2238.619 DT     00A7 Rx 8  D3 0A 00 00 02 00 FF FF 
   1500      2239.110 DT     00A8 Rx 8  00 00 00 00 FE FF 07 00 
   1501      2239.587 DT     00AA Rx 8  04 0C 09 03 20 10 40 00 
   1502      2239.815 DT     0038 Rx 1  14 
   1503      2240.042 DT     0037 Rx 1  5C 
   1504      2240.547 DT     00AB Rx 8  00 00 00 00 00 00 00 00 
   1505      2241.037 DT     00AC Rx 8  00 00 00 00 BD 0E 00 00 
   1506      2241.533 DT     00AD Rx 8  00 00 00 00 00 00 00 00 
   1507      2242.015 DT     00B1 Rx 8  06 09 FA F6 00 00 00 00 
   1508      2242.515 DT     00C0 Rx 8  00 00 00 00 00 00 00 00 
   1509      2243.072 DT 1839F380 Rx 8  00 13 14 13 24 23 03 C5 
   1510      2243.621 DT 1838F380 Rx 8  00 16 13 16 13 14 23 03 
   1511      2243.951 DT     0080 Rx 4  05 13 00 9C 
   1512      2244.419 DT     00A0 Rx 8  F6 00 09 01 0B 01 3A 01 
   1513      2244.879 DT     00A1 Rx 8  4D 01 B8 0B B8 0B CE 00 
   1514      2245.356 DT     00A2 Rx 8  C0 00 C0 00 C9 FD 00 00 
   1515      2245.825 DT     00A9 Rx 8  95 00 FD 00 FC 01 7C 04 
   1516      2246.298 DT     00AE Rx 8  10 00 30 65 24 05 24 20 
   1517      2246.860 DT 18EEFF80 Rx 8  F3 00 80 F3 00 40 1E 90 
   1518      2247.338 DT     06D0 Rx 8  7D 00 00 0A D1 00 00 30 
   1519      2247.566 DT     0038 Rx 1  14 
   1520      2247.793 DT     0037 Rx 1  5C 
   1521      2248.275 DT     06B1 Rx 8  00 32 00 01 14 13 00 13 
   1522      2248.752 DT     06D0 Rx 8  7E 00 00 0A D2 00 00 32 
   1523      2249.243 DT     0080 Rx 8  00 00 FF FF 00 00 00 86 
   1524      2251.578 DT     00C0 Rx 8  00 00 00 00 00 00 00 00 
   1525      2255.402 DT     0037 Rx 1  5C 
   1526      2255.629 DT     0038 Rx 1  14 
   1527      2261.583 DT     00C0 Rx 8  00 00 00 00 00 00 00 00 
   1528      2263.401 DT     0037 Rx 1  5C 
   1529      2263.629 DT     0038 Rx 1  14 
   1530      2271.588 DT     00C0 Rx 8  00 00 00 00 00 00 00 00 
   1531      2271.816 DT     0038 Rx 1  14 
   1532      2272.043 DT     0037 Rx 1  5C 
   1533      2279.399 DT     0037 Rx 1  5C 
   1534      2279.627 DT     0038 Rx 1  14 
   1535      2280.100 DT     06D0 Rx 8  7F 00 00 0A D1 00 AA DC 
   1536      2281.593 DT     00C0 Rx 8  00 00 00 00 00 00 00 00 
   1537      2287.475 DT     0037 Rx 1  5C 
   1538      2287.702 DT     0038 Rx 1  14 
   1539      2291.601 DT     00C0 Rx 8  00 00 00 00 00 00 00 00 
   1540      2295.398 DT     0037 Rx 1  5C 
   1541      2295.626 DT     0038 Rx 1  14 
   1542      2296.108 DT     06D0 Rx 8  80 00 00 0A D2 00 00 34 
   1543      2301.611 DT     00C0 Rx 8  00 00 00 00 00 00 00 00 
   1544      2303.398 DT     0037 Rx 1  5C 
   1545      2303.626 DT     0038 Rx 1  14 
   1546      2304.107 DT     06D0 Rx 8  82 00 00 0A D2 00 00 36 
   1547      2311.616 DT     00C0 Rx 8  00 00 00 00 00 00 00 00 
   1548      2311.844 DT     0038 Rx 1  14 
   1549      2312.071 DT     0037 Rx 1  5C 
   1550      2312.548 DT     06D0 Rx 8  83 00 00 0A D2 00 00 37 
   1551      2319.393 DT     0037 Rx 1  5C 
   1552      2319.621 DT     0038 Rx 1  14 
   1553      2320.098 DT     06D0 Rx 8  84 00 00 0A D2 00 00 38 
   1554      2321.622 DT     00C0 Rx 8  00 00 00 00 00 00 00 00 
   1555      2327.393 DT     0037 Rx 1  5C 
   1556      2327.621 DT     0038 Rx 1  14 
   1557      2328.098 DT     06D0 Rx 8  85 00 00 0A D2 00 00 39 
   1558      2331.627 DT     00C0 Rx 8  00 00 00 00 00 00 00 00 
   1559      2335.398 DT     0037 Rx 1  5C 
   1560      2335.625 DT     0038 Rx 1  14 
   1561      2336.182 DT 1839F380 Rx 8  00 13 14 13 24 23 03 C5 
   1562      2336.731 DT 1838F380 Rx 8  00 17 13 17 13 14 23 03 
   1563      2336.968 DT     0000 Rx 1  00 
   1564      2337.319 DT     0001 Rx 4  00 00 00 00 
   1565      2337.676 DT     0002 Rx 4  00 00 00 00 
   1566      2338.029 DT     0003 Rx 4  00 00 00 00 
   1567      2338.368 DT     0080 Rx 4  06 14 00 9E 
   1568      2338.836 DT     00A3 Rx 8  F3 0D 30 1F 10 00 00 00 
   1569      2339.336 DT     00A4 Rx 8  00 00 00 00 00 01 00 00 
   1570      2339.818 DT     00A5 Rx 8  A0 06 00 00 00 00 61 F9 
   1571      2340.305 DT     00A6 Rx 8  F9 FF FE FF 06 00 00 00 
   1572      2340.787 DT     00A7 Rx 8  D3 0A 00 00 01 00 00 00 
   1573      2341.273 DT     00A8 Rx 8  00 00 00 00 ED FF 0A 00 
   1574      2341.755 DT     00AA Rx 8  04 0C 09 03 20 10 40 00 
   1575      2342.255 DT     00AB Rx 8  00 00 00 00 00 00 00 00 
   1576      2342.750 DT     00AC Rx 8  00 00 00 00 DF 0E 00 00 
   1577      2343.246 DT     00AD Rx 8  00 00 00 00 00 00 00 00 
   1578      2343.473 DT     0037 Rx 1  5C 
   1579      2343.701 DT     0038 Rx 1  14 
   1580      2344.187 DT     00B1 Rx 8  06 09 FA F6 00 00 00 00 
   1581      2344.687 DT     00C0 Rx 8  00 00 00 00 00 00 00 00 
   1582      2346.353 DT     00A0 Rx 8  F6 00 09 01 0B 01 3A 01 
   1583      2346.817 DT     00A1 Rx 8  4D 01 B8 0B B8 0B CF 00 
   1584      2347.299 DT     00A2 Rx 8  C1 00 C1 00 C9 FD 00 00 
   1585      2347.781 DT     0080 Rx 8  00 00 B8 0B B8 0B 00 0E 
   1586      2348.250 DT     00A9 Rx 8  95 00 FD 00 FB 01 7B 04 
   1587      2348.719 DT     00AE Rx 8  10 00 30 65 24 05 24 20 
   1588      2351.638 DT     00C0 Rx 8  00 00 00 00 00 00 00 00 
   1589      2351.866 DT     0038 Rx 1  14 
   1590      2352.093 DT     0037 Rx 1  5C 
   1591      2352.574 DT     06B1 Rx 8  00 32 00 01 14 13 00 13 
   1592      2353.052 DT     06D0 Rx 8  00 00 00 0A D2 01 03 B8 
   1593      2359.389 DT     0037 Rx 1  5C 
   1594      2359.616 DT     0038 Rx 1  14 
   1595      2361.648 DT     00C0 Rx 8  00 00 00 00 00 00 00 00 
   1596      2367.469 DT     0037 Rx 1  5C 
   1597      2367.696 DT     0038 Rx 1  14 
   1598      2371.653 DT     00C0 Rx 8  00 00 00 00 00 00 00 00 
   1599      2375.383 DT     0037 Rx 1  5C 
   1600      2375.611 DT     0038 Rx 1  14 
   1601      2376.096 DT     06D0 Rx 8  01 00 00 0A D2 08 00 BD 
   1602      2381.658 DT     00C0 Rx 8  00 00 00 00 00 00 00 00 
   1603      2383.383 DT     0037 Rx 1  5C 
   1604      2383.611 DT     0038 Rx 1  14 
   1605      2391.671 DT     00C0 Rx 8  00 00 00 00 00 00 00 00 
   1606      2391.898 DT     0038 Rx 1  14 
   1607      2392.126 DT     0037 Rx 1  5C 
   1608      2392.599 DT     06D0 Rx 8  02 00 00 0A D2 05 A6 61 
   1609      2399.380 DT     0037 Rx 1  5C 
   1610      2399.608 DT     0038 Rx 1  14 
   1611      2400.085 DT     06D0 Rx 8  03 00 00 0A D2 4D 00 04 
   1612      2401.672 DT     00C0 Rx 8  00 00 00 00 00 00 00 00 
   1613      2407.380 DT     0037 Rx 1  5C 
   1614      2407.608 DT     0038 Rx 1  14 
   1615      2411.682 DT     00C0 Rx 8  00 00 00 00 00 00 00 00 
   1616      2415.389 DT     0037 Rx 1  5C 
   1617      2415.616 DT     0038 Rx 1  14 
   1618      2421.687 DT     00C0 Rx 8  00 00 00 00 00 00 00 00 
   1619      2423.455 DT     0037 Rx 1  5C 
   1620      2423.683 DT     0038 Rx 1  14 
   1621      2424.169 DT     06D0 Rx 8  04 00 00 0A D2 44 C7 C3 
   1622      2431.484 DT     0037 Rx 1  5C 
   1623      2431.712 DT     0038 Rx 1  14 
   1624      2432.211 DT     00C0 Rx 8  00 00 00 00 00 00 00 00 
   1625      2432.693 DT     06D0 Rx 8  05 00 00 0A D2 00 00 B9 
   1626      2435.648 DT     0080 Rx 4  05 13 00 9C 
   1627      2436.206 DT 1839F380 Rx 8  00 13 14 13 24 23 03 C5 
   1628      2436.768 DT 1838F380 Rx 8  00 18 13 18 13 14 23 03 
   1629      2437.014 DT     0000 Rx 1  01 
   1630      2437.366 DT     0001 Rx 4  00 00 00 00 
   1631      2437.723 DT     0002 Rx 4  00 00 00 00 
   1632      2438.071 DT     0003 Rx 4  01 00 00 00 
   1633      2439.345 DT 18EEFF80 Rx 8  F3 00 80 F3 00 40 1E 90 
   1634      2439.573 DT     0038 Rx 1  14 
   1635      2439.800 DT     0037 Rx 1  5C 
   1636      2440.278 DT     00A3 Rx 8  F3 09 30 1F 10 00 00 00 
   1637      2440.777 DT     00A4 Rx 8  00 00 00 00 00 01 00 00 
   1638      2441.259 DT     00A5 Rx 8  A0 06 00 00 00 00 61 F9 
   1639      2441.741 DT     00A6 Rx 8  02 00 02 00 F6 FF 00 00 
   1640      2442.223 DT     00A7 Rx 8  D3 0A 00 00 01 00 00 00 
   1641      2442.719 DT     00A8 Rx 8  00 00 00 00 01 00 03 00 
   1642      2443.201 DT     00AA Rx 8  04 0C 09 03 20 10 40 00 
   1643      2443.701 DT     00AB Rx 8  00 00 00 00 00 00 00 00 
   1644      2444.191 DT     00AC Rx 8  00 00 00 00 01 0F 00 00 
   1645      2444.687 DT     00AD Rx 8  00 00 00 00 00 00 00 00 
   1646      2445.169 DT     00B1 Rx 8  06 09 FA F6 00 00 00 00 
   1647      2445.669 DT     00C0 Rx 8  00 00 00 00 00 00 00 00 
   1648      2446.150 DT     06D0 Rx 8  06 00 00 0A D2 00 6C 26 
   1649      2447.558 DT     0037 Rx 1  5C 
   1650      2447.786 DT     0038 Rx 1  14 
   1651      2448.263 DT     06D0 Rx 8  07 00 00 0A D2 00 48 03 
   1652      2448.754 DT     0080 Rx 8  00 00 FF FF FF FF 00 84 
   1653      2449.223 DT     00A0 Rx 8  F6 00 09 01 0B 01 3B 01 
   1654      2449.687 DT     00A1 Rx 8  4E 01 B8 0B B8 0B D0 00 
   1655      2450.173 DT     00A2 Rx 8  C1 00 C1 00 C9 FD 00 00 
   1656      2450.642 DT     00A9 Rx 8  95 00 FD 00 FC 01 7E 04 
   1657      2451.115 DT     00AE Rx 8  10 00 30 65 24 05 24 20 
   1658      2451.806 DT     00C0 Rx 8  00 00 00 00 00 00 00 00 
   1659      2455.723 DT     06B1 Rx 8  00 32 00 01 14 13 00 13 
   1660      2455.951 DT     0038 Rx 1  14 
   1661      2456.178 DT     0037 Rx 1  5C 
   1662      2456.647 DT     06D0 Rx 8  08 00 00 0A D2 00 EA A6 
   1663      2461.816 DT     00C0 Rx 8  00 00 00 00 00 00 00 00 
   1664      2463.474 DT     0037 Rx 1  5C 
   1665      2463.701 DT     0038 Rx 1  14 
   1666      2464.179 DT     06D0 Rx 8  09 00 00 0A D2 40 10 0D 
   1667      2471.550 DT     0037 Rx 1  5C 
   1668      2471.777 DT     0038 Rx 1  14 
   1669      2472.277 DT     00C0 Rx 8  00 00 00 00 00 00 00 00 
   1670      2479.474 DT     0037 Rx 1  5C 
   1671      2479.702 DT     0038 Rx 1  14 
   1672      2480.188 DT     06D0 Rx 8  0A 00 00 0A D2 00 01 BF 
   1673      2481.828 DT     00C0 Rx 8  00 00 00 00 00 00 00 00 
   1674      2487.469 DT     0037 Rx 1  5C 
   1675      2487.697 DT     0038 Rx 1  14 
   1676      2488.174 DT     06D0 Rx 8  0B 00 00 0A D2 00 32 F1 
   1677      2491.833 DT     00C0 Rx 8  00 00 00 00 00 00 00 00 
   1678      2495.469 DT     0037 Rx 1  5C 
   1679      2495.697 DT     0038 Rx 1  14 
   1680      2501.841 DT     00C0 Rx 8  00 00 00 00 00 00 00 00 
   1681      2503.549 DT     0037 Rx 1  5C 
   1682      2503.776 DT     0038 Rx 1  14 
   1683      2511.467 DT     0037 Rx 1  5C 
   1684      2511.694 DT     0038 Rx 1  14 
   1685      2512.194 DT     00C0 Rx 8  00 00 00 00 00 00 00 00 
   1686      2512.680 DT     06D0 Rx 8  0C 00 00 0A D2 00 00 C0 
   1687      2519.539 DT     0037 Rx 1  5C 
   1688      2519.766 DT     0038 Rx 1  14 
   1689      2521.852 DT     00C0 Rx 8  00 00 00 00 00 00 00 00 
   1690      2527.462 DT     0037 Rx 1  5C 
   1691      2527.690 DT     0038 Rx 1  14 
   1692      2528.162 DT     06D0 Rx 8  0D 00 00 0A D2 0A D2 9D 
   1693      2531.861 DT     00C0 Rx 8  00 00 00 00 00 00 00 00 
   1694      2535.640 DT     0080 Rx 4  06 14 00 9E 
   1695      2535.868 DT     0038 Rx 1  14 
   1696      2536.095 DT     0037 Rx 1  5C 
   1697      2536.653 DT 1839F380 Rx 8  00 13 14 13 24 23 03 C5 
   1698      2536.898 DT     0000 Rx 1  01 
   1699      2537.251 DT     0001 Rx 4  01 00 00 00 
   1700      2537.608 DT     0002 Rx 4  00 00 00 00 
   1701      2537.960 DT     0003 Rx 4  00 00 00 00 
   1702      2538.509 DT 1838F380 Rx 8  00 19 13 19 13 14 23 03 
   1703      2538.982 DT     00A3 Rx 8  F3 0D 30 1F 10 00 00 00 
   1704      2539.482 DT     00A4 Rx 8  00 00 00 00 00 01 00 00 
   1705      2539.963 DT     00A5 Rx 8  A0 06 00 00 00 00 61 F9 
   1706      2540.454 DT     00A6 Rx 8  08 00 03 00 0D 00 00 00 
   1707      2540.927 DT     00A7 Rx 8  D3 0A 00 00 01 00 FF FF 
   1708      2541.418 DT     00A8 Rx 8  00 00 00 00 0A 00 FA FF 
   1709      2541.895 DT     00AA Rx 8  04 0C 09 03 20 10 40 00 
   1710      2542.395 DT     00AB Rx 8  00 00 00 00 00 00 00 00 
   1711      2542.895 DT     00AC Rx 8  00 00 00 00 22 0F 00 00 
   1712      2543.395 DT     00AD Rx 8  00 00 00 00 00 00 00 00 
   1713      2543.622 DT     0038 Rx 1  14 
   1714      2543.850 DT     0037 Rx 1  5C 
   1715      2544.332 DT     00B1 Rx 8  06 09 FA F6 00 00 00 00 
   1716      2544.832 DT     00C0 Rx 8  00 00 00 00 00 00 00 00 
   1717      2545.314 DT     06D0 Rx 8  0E 00 00 0A D2 0A D1 9D 
   1718      2547.434 DT     00A0 Rx 8  F6 00 09 01 0B 01 3A 01 
   1719      2547.934 DT     0080 Rx 8  00 00 00 00 00 00 00 88 
   1720      2548.398 DT     00A1 Rx 8  4C 01 B8 0B B8 0B D0 00 
   1721      2548.871 DT     00A2 Rx 8  C2 00 C2 00 C9 FD 00 00 
   1722      2549.340 DT     00A9 Rx 8  95 00 FD 00 FC 01 7B 04 
   1723      2549.809 DT     00AE Rx 8  10 00 30 65 24 05 24 20 
   1724      2551.462 DT     0037 Rx 1  5C 
   1725      2551.690 DT     0038 Rx 1  14 
   1726      2552.190 DT     00C0 Rx 8  00 00 00 00 00 00 00 00 
   1727      2559.783 DT     06B1 Rx 8  00 32 00 01 14 13 00 13 
   1728      2560.010 DT     0038 Rx 1  14 
   1729      2560.238 DT     0037 Rx 1  5C 
   1730      2561.878 DT     00C0 Rx 8  00 00 00 00 00 00 00 00 
   1731      2567.462 DT     0037 Rx 1  5C 
   1732      2567.690 DT     0038 Rx 1  14 
   1733      2568.171 DT     06D0 Rx 8  0F 00 00 0A D1 00 5C 1E 
   1734      2571.883 DT     00C0 Rx 8  00 00 00 00 00 00 00 00 
   1735      2575.462 DT     0037 Rx 1  5C 
   1736      2575.689 DT     0038 Rx 1  14 
   1737      2576.162 DT     06D0 Rx 8  10 00 00 0A D1 00 4E 11 
   1738      2581.893 DT     00C0 Rx 8  00 00 00 00 00 00 00 00 
   1739      2583.466 DT     0037 Rx 1  5C 
   1740      2583.694 DT     0038 Rx 1  14 
   1741      2591.523 DT     0037 Rx 1  5C 
   1742      2591.750 DT     0038 Rx 1  14 
